***BUSMASTER Ver 3.2.2***
***PROTOCOL CAN***
***NOTE: PLEASE DO NOT EDIT THIS DOCUMENT***
***[START LOGGING SESSION]***
***START DATE AND TIME 21:4:2026 14:24:46:255***
***HEX***
***ABSOLUTE MODE***
***START CHANNEL BAUD RATE***
***CHANNEL 1 - ValueCAN3, Serial Number 139862, Network: CAN 1 - 1000000 bps***
***CHANNEL 2 - ValueCAN3, Serial Number 139862, Network: CAN 2 - 1000000 bps***
***END CHANNEL BAUD RATE***
***START DATABASE FILES***
***C:\ZJ_Data\Job\01_Repos\vcu_gitea\RPi_CANGW\ref_dbc\EVJB_A0_01_CANMatrix_01.06_rvw_CMatrix-ADAS_CAN7.dbf***
***C:\ZJ_Data\Job\01_Repos\vcu_gitea\RPi_CANGW\ref_dbc\EVJB_A0_01_CANMatrix_01.06_rvw_CMatrix-CH_CAN6.dbf***
***END DATABASE FILES***
***<Time><Tx/Rx><Channel><CAN ID><Type><DLC><DataBytes>***
00:00:11:1284 Rx 1 0x100 s 8 00 00 00 00 00 01 01 00 
00:00:11:1286 Rx 2 0x201 s 8 00 00 00 00 01 02 01 01 
00:00:11:1286 Rx 1 0x101 s 8 00 00 00 00 01 01 01 00 
00:00:11:1287 Rx 2 0x210 s 8 00 00 00 00 10 02 00 01 
00:00:11:1287 Rx 1 0x110 s 8 00 00 00 00 10 01 00 00 
00:00:11:1289 Rx 2 0x211 s 8 00 00 00 00 11 02 00 01 
00:00:11:1289 Rx 1 0x111 s 8 00 00 00 00 11 01 00 00 
00:00:11:1293 Rx 2 0x210 s 8 01 00 00 00 10 02 00 01 
00:00:11:1293 Rx 1 0x110 s 8 01 00 00 00 10 01 00 00 
00:00:11:1303 Rx 2 0x210 s 8 02 00 00 00 10 02 00 01 
00:00:11:1303 Rx 1 0x110 s 8 02 00 00 00 10 01 00 00 
00:00:11:1305 Rx 2 0x211 s 8 01 00 00 00 11 02 00 01 
00:00:11:1305 Rx 1 0x111 s 8 01 00 00 00 11 01 00 00 
00:00:11:1313 Rx 1 0x110 s 8 03 00 00 00 10 01 00 00 
00:00:11:1313 Rx 2 0x210 s 8 03 00 00 00 10 02 00 01 
00:00:11:1323 Rx 2 0x210 s 8 04 00 00 00 10 02 00 01 
00:00:11:1323 Rx 1 0x110 s 8 04 00 00 00 10 01 00 00 
00:00:11:1325 Rx 1 0x111 s 8 02 00 00 00 11 01 00 00 
00:00:11:1325 Rx 2 0x211 s 8 02 00 00 00 11 02 00 01 
00:00:11:1333 Rx 1 0x110 s 8 05 00 00 00 10 01 00 00 
00:00:11:1333 Rx 2 0x210 s 8 05 00 00 00 10 02 00 01 
00:00:11:1343 Rx 2 0x210 s 8 06 00 00 00 10 02 00 01 
00:00:11:1343 Rx 1 0x110 s 8 06 00 00 00 10 01 00 00 
00:00:11:1345 Rx 2 0x211 s 8 03 00 00 00 11 02 00 01 
00:00:11:1345 Rx 1 0x111 s 8 03 00 00 00 11 01 00 00 
00:00:11:1353 Rx 1 0x110 s 8 07 00 00 00 10 01 00 00 
00:00:11:1353 Rx 2 0x210 s 8 07 00 00 00 10 02 00 01 
00:00:11:1363 Tx 1 0x54F x 8 00 00 00 00 00 00 00 00 
00:00:11:1363 Rx 2 0x210 s 8 08 00 00 00 10 02 00 01 
00:00:11:1365 Rx 2 0x211 s 8 04 00 00 00 11 02 00 01 
00:00:11:1365 Rx 1 0x110 s 8 08 00 00 00 10 01 00 00 
00:00:11:1366 Tx 2 0x18FF20EF x 8 00 00 00 00 00 00 00 00 
00:00:11:1366 Tx 1 0x28C x 8 00 00 00 00 00 00 00 00 
00:00:11:1367 Rx 1 0x111 s 8 04 00 00 00 11 01 00 00 
00:00:11:1373 Rx 2 0x210 s 8 09 00 00 00 10 02 00 01 
00:00:11:1373 Rx 1 0x110 s 8 09 00 00 00 10 01 00 00 
00:00:11:1383 Rx 1 0x100 s 8 01 00 00 00 00 01 01 00 
00:00:11:1383 Rx 2 0x200 s 8 01 00 00 00 00 02 01 01 
00:00:11:1385 Rx 2 0x210 s 8 0A 00 00 00 10 02 00 01 
00:00:11:1385 Rx 1 0x110 s 8 0A 00 00 00 10 01 00 00 
00:00:11:1386 Rx 1 0x111 s 8 05 00 00 00 11 01 00 00 
00:00:11:1386 Rx 2 0x211 s 8 05 00 00 00 11 02 00 01 
00:00:11:1393 Rx 2 0x210 s 8 0B 00 00 00 10 02 00 01 
00:00:11:1393 Rx 1 0x110 s 8 0B 00 00 00 10 01 00 00 
00:00:11:1403 Rx 1 0x110 s 8 0C 00 00 00 10 01 00 00 
00:00:11:1403 Rx 2 0x210 s 8 0C 00 00 00 10 02 00 01 
00:00:11:1405 Rx 2 0x211 s 8 06 00 00 00 11 02 00 01 
00:00:11:1405 Rx 1 0x111 s 8 06 00 00 00 11 01 00 00 
00:00:11:1413 Rx 1 0x110 s 8 0D 00 00 00 10 01 00 00 
00:00:11:1413 Rx 2 0x210 s 8 0D 00 00 00 10 02 00 01 
00:00:11:1423 Rx 1 0x110 s 8 0E 00 00 00 10 01 00 00 
00:00:11:1423 Rx 2 0x210 s 8 0E 00 00 00 10 02 00 01 
00:00:11:1425 Rx 1 0x111 s 8 07 00 00 00 11 01 00 00 
00:00:11:1425 Rx 2 0x211 s 8 07 00 00 00 11 02 00 01 
00:00:11:1433 Rx 2 0x210 s 8 0F 00 00 00 10 02 00 01 
00:00:11:1433 Rx 1 0x110 s 8 0F 00 00 00 10 01 00 00 
00:00:11:1443 Rx 1 0x110 s 8 10 00 00 00 10 01 00 00 
00:00:11:1443 Rx 2 0x210 s 8 10 00 00 00 10 02 00 01 
00:00:11:1445 Rx 2 0x211 s 8 08 00 00 00 11 02 00 01 
00:00:11:1445 Rx 1 0x111 s 8 08 00 00 00 11 01 00 00 
00:00:11:1453 Rx 2 0x210 s 8 11 00 00 00 10 02 00 01 
00:00:11:1453 Rx 1 0x110 s 8 11 00 00 00 10 01 00 00 
00:00:11:1463 Rx 2 0x210 s 8 12 00 00 00 10 02 00 01 
00:00:11:1463 Rx 1 0x110 s 8 12 00 00 00 10 01 00 00 
00:00:11:1465 Rx 1 0x111 s 8 09 00 00 00 11 01 00 00 
00:00:11:1465 Rx 2 0x211 s 8 09 00 00 00 11 02 00 01 
00:00:11:1473 Rx 1 0x110 s 8 13 00 00 00 10 01 00 00 
00:00:11:1473 Rx 2 0x210 s 8 13 00 00 00 10 02 00 01 
00:00:11:1483 Rx 1 0x100 s 8 02 00 00 00 00 01 01 00 
00:00:11:1483 Rx 2 0x200 s 8 02 00 00 00 00 02 01 01 
00:00:11:1485 Rx 1 0x101 s 8 01 00 00 00 01 01 01 00 
00:00:11:1485 Rx 2 0x201 s 8 01 00 00 00 01 02 01 01 
00:00:11:1486 Rx 2 0x210 s 8 14 00 00 00 10 02 00 01 
00:00:11:1486 Rx 1 0x110 s 8 14 00 00 00 10 01 00 00 
00:00:11:1487 Rx 1 0x111 s 8 0A 00 00 00 11 01 00 00 
00:00:11:1487 Rx 2 0x211 s 8 0A 00 00 00 11 02 00 01 
00:00:11:1493 Rx 1 0x110 s 8 15 00 00 00 10 01 00 00 
00:00:11:1493 Rx 2 0x210 s 8 15 00 00 00 10 02 00 01 
00:00:11:1503 Rx 1 0x110 s 8 16 00 00 00 10 01 00 00 
00:00:11:1503 Rx 2 0x210 s 8 16 00 00 00 10 02 00 01 
00:00:11:1505 Rx 1 0x111 s 8 0B 00 00 00 11 01 00 00 
00:00:11:1505 Rx 2 0x211 s 8 0B 00 00 00 11 02 00 01 
00:00:11:1513 Rx 2 0x210 s 8 17 00 00 00 10 02 00 01 
00:00:11:1513 Rx 1 0x110 s 8 17 00 00 00 10 01 00 00 
00:00:11:1523 Rx 1 0x110 s 8 18 00 00 00 10 01 00 00 
00:00:11:1523 Rx 2 0x210 s 8 18 00 00 00 10 02 00 01 
00:00:11:1525 Rx 2 0x211 s 8 0C 00 00 00 11 02 00 01 
00:00:11:1525 Tx 1 0x54F x 8 00 00 00 00 00 00 00 00 
00:00:11:1526 Tx 2 0x18FF20EF x 8 00 00 00 00 00 00 00 00 
00:00:11:1526 Rx 1 0x111 s 8 0C 00 00 00 11 01 00 00 
00:00:11:1528 Tx 1 0x28C x 8 00 00 00 00 00 00 00 00 
00:00:11:1533 Rx 1 0x110 s 8 19 00 00 00 10 01 00 00 
00:00:11:1533 Rx 2 0x210 s 8 19 00 00 00 10 02 00 01 
00:00:11:1543 Rx 2 0x210 s 8 1A 00 00 00 10 02 00 01 
00:00:11:1543 Rx 1 0x110 s 8 1A 00 00 00 10 01 00 00 
00:00:11:1545 Rx 2 0x211 s 8 0D 00 00 00 11 02 00 01 
00:00:11:1545 Rx 1 0x111 s 8 0D 00 00 00 11 01 00 00 
00:00:11:1553 Rx 2 0x210 s 8 1B 00 00 00 10 02 00 01 
00:00:11:1553 Rx 1 0x110 s 8 1B 00 00 00 10 01 00 00 
00:00:11:1563 Rx 1 0x110 s 8 1C 00 00 00 10 01 00 00 
00:00:11:1563 Rx 2 0x210 s 8 1C 00 00 00 10 02 00 01 
00:00:11:1565 Rx 2 0x211 s 8 0E 00 00 00 11 02 00 01 
00:00:11:1565 Rx 1 0x111 s 8 0E 00 00 00 11 01 00 00 
00:00:11:1573 Rx 2 0x210 s 8 1D 00 00 00 10 02 00 01 
00:00:11:1573 Rx 1 0x110 s 8 1D 00 00 00 10 01 00 00 
00:00:11:1583 Rx 1 0x100 s 8 03 00 00 00 00 01 01 00 
00:00:11:1583 Rx 2 0x200 s 8 03 00 00 00 00 02 01 01 
00:00:11:1585 Rx 2 0x210 s 8 1E 00 00 00 10 02 00 01 
00:00:11:1585 Rx 1 0x110 s 8 1E 00 00 00 10 01 00 00 
00:00:11:1586 Rx 1 0x111 s 8 0F 00 00 00 11 01 00 00 
00:00:11:1586 Rx 2 0x211 s 8 0F 00 00 00 11 02 00 01 
00:00:11:1593 Rx 2 0x210 s 8 1F 00 00 00 10 02 00 01 
00:00:11:1593 Rx 1 0x110 s 8 1F 00 00 00 10 01 00 00 
00:00:11:1603 Rx 1 0x110 s 8 20 00 00 00 10 01 00 00 
00:00:11:1603 Rx 2 0x210 s 8 20 00 00 00 10 02 00 01 
00:00:11:1605 Rx 1 0x111 s 8 10 00 00 00 11 01 00 00 
00:00:11:1605 Rx 2 0x211 s 8 10 00 00 00 11 02 00 01 
00:00:11:1613 Rx 2 0x210 s 8 21 00 00 00 10 02 00 01 
00:00:11:1613 Rx 1 0x110 s 8 21 00 00 00 10 01 00 00 
00:00:11:1623 Rx 1 0x110 s 8 22 00 00 00 10 01 00 00 
00:00:11:1623 Rx 2 0x210 s 8 22 00 00 00 10 02 00 01 
00:00:11:1625 Rx 2 0x211 s 8 11 00 00 00 11 02 00 01 
00:00:11:1625 Rx 1 0x111 s 8 11 00 00 00 11 01 00 00 
00:00:11:1633 Rx 2 0x210 s 8 23 00 00 00 10 02 00 01 
00:00:11:1633 Rx 1 0x110 s 8 23 00 00 00 10 01 00 00 
00:00:11:1643 Rx 2 0x210 s 8 24 00 00 00 10 02 00 01 
00:00:11:1643 Rx 1 0x110 s 8 24 00 00 00 10 01 00 00 
00:00:11:1645 Rx 1 0x111 s 8 12 00 00 00 11 01 00 00 
00:00:11:1645 Rx 2 0x211 s 8 12 00 00 00 11 02 00 01 
00:00:11:1653 Rx 1 0x110 s 8 25 00 00 00 10 01 00 00 
00:00:11:1653 Rx 2 0x210 s 8 25 00 00 00 10 02 00 01 
00:00:11:1663 Rx 1 0x110 s 8 26 00 00 00 10 01 00 00 
00:00:11:1663 Rx 2 0x210 s 8 26 00 00 00 10 02 00 01 
00:00:11:1665 Rx 2 0x211 s 8 13 00 00 00 11 02 00 01 
00:00:11:1665 Rx 1 0x111 s 8 13 00 00 00 11 01 00 00 
00:00:11:1673 Rx 1 0x110 s 8 27 00 00 00 10 01 00 00 
00:00:11:1673 Rx 2 0x210 s 8 27 00 00 00 10 02 00 01 
00:00:11:1683 Tx 1 0x54F x 8 00 00 00 00 00 00 00 00 
00:00:11:1683 Rx 2 0x200 s 8 04 00 00 00 00 02 01 01 
00:00:11:1685 Rx 2 0x201 s 8 02 00 00 00 01 02 01 01 
00:00:11:1685 Rx 1 0x100 s 8 04 00 00 00 00 01 01 00 
00:00:11:1686 Rx 2 0x210 s 8 28 00 00 00 10 02 00 01 
00:00:11:1686 Tx 1 0x28C x 8 00 00 00 00 00 00 00 00 
00:00:11:1687 Rx 2 0x211 s 8 14 00 00 00 11 02 00 01 
00:00:11:1687 Rx 1 0x101 s 8 02 00 00 00 01 01 01 00 
00:00:11:1689 Tx 2 0x18FF20EF x 8 00 00 00 00 00 00 00 00 
00:00:11:1689 Rx 1 0x110 s 8 28 00 00 00 10 01 00 00 
00:00:11:1690 Rx 1 0x111 s 8 14 00 00 00 11 01 00 00 
00:00:11:1693 Rx 1 0x110 s 8 29 00 00 00 10 01 00 00 
00:00:11:1693 Rx 2 0x210 s 8 29 00 00 00 10 02 00 01 
00:00:11:1703 Rx 1 0x110 s 8 2A 00 00 00 10 01 00 00 
00:00:11:1703 Rx 2 0x210 s 8 2A 00 00 00 10 02 00 01 
00:00:11:1705 Rx 1 0x111 s 8 15 00 00 00 11 01 00 00 
00:00:11:1705 Rx 2 0x211 s 8 15 00 00 00 11 02 00 01 
00:00:11:1713 Rx 2 0x210 s 8 2B 00 00 00 10 02 00 01 
00:00:11:1713 Rx 1 0x110 s 8 2B 00 00 00 10 01 00 00 
00:00:11:1723 Rx 2 0x210 s 8 2C 00 00 00 10 02 00 01 
00:00:11:1723 Rx 1 0x110 s 8 2C 00 00 00 10 01 00 00 
00:00:11:1725 Rx 1 0x111 s 8 16 00 00 00 11 01 00 00 
00:00:11:1725 Rx 2 0x211 s 8 16 00 00 00 11 02 00 01 
00:00:11:1733 Rx 2 0x210 s 8 2D 00 00 00 10 02 00 01 
00:00:11:1733 Rx 1 0x110 s 8 2D 00 00 00 10 01 00 00 
00:00:11:1743 Rx 2 0x210 s 8 2E 00 00 00 10 02 00 01 
00:00:11:1743 Rx 1 0x110 s 8 2E 00 00 00 10 01 00 00 
00:00:11:1745 Rx 1 0x111 s 8 17 00 00 00 11 01 00 00 
00:00:11:1745 Rx 2 0x211 s 8 17 00 00 00 11 02 00 01 
00:00:11:1753 Rx 1 0x110 s 8 2F 00 00 00 10 01 00 00 
00:00:11:1753 Rx 2 0x210 s 8 2F 00 00 00 10 02 00 01 
00:00:11:1763 Rx 1 0x110 s 8 30 00 00 00 10 01 00 00 
00:00:11:1763 Rx 2 0x210 s 8 30 00 00 00 10 02 00 01 
00:00:11:1765 Rx 2 0x211 s 8 18 00 00 00 11 02 00 01 
00:00:11:1765 Rx 1 0x111 s 8 18 00 00 00 11 01 00 00 
00:00:11:1773 Rx 1 0x110 s 8 31 00 00 00 10 01 00 00 
00:00:11:1773 Rx 2 0x210 s 8 31 00 00 00 10 02 00 01 
00:00:11:1783 Rx 2 0x200 s 8 05 00 00 00 00 02 01 01 
00:00:11:1783 Rx 1 0x100 s 8 05 00 00 00 00 01 01 00 
00:00:11:1785 Rx 1 0x110 s 8 32 00 00 00 10 01 00 00 
00:00:11:1785 Rx 2 0x210 s 8 32 00 00 00 10 02 00 01 
00:00:11:1786 Rx 2 0x211 s 8 19 00 00 00 11 02 00 01 
00:00:11:1786 Rx 1 0x111 s 8 19 00 00 00 11 01 00 00 
00:00:11:1793 Rx 1 0x110 s 8 33 00 00 00 10 01 00 00 
00:00:11:1793 Rx 2 0x210 s 8 33 00 00 00 10 02 00 01 
00:00:11:1803 Rx 2 0x210 s 8 34 00 00 00 10 02 00 01 
00:00:11:1803 Rx 1 0x110 s 8 34 00 00 00 10 01 00 00 
00:00:11:1805 Rx 1 0x111 s 8 1A 00 00 00 11 01 00 00 
00:00:11:1805 Rx 2 0x211 s 8 1A 00 00 00 11 02 00 01 
00:00:11:1813 Rx 1 0x110 s 8 35 00 00 00 10 01 00 00 
00:00:11:1813 Rx 2 0x210 s 8 35 00 00 00 10 02 00 01 
00:00:11:1823 Rx 1 0x110 s 8 36 00 00 00 10 01 00 00 
00:00:11:1823 Rx 2 0x210 s 8 36 00 00 00 10 02 00 01 
00:00:11:1825 Rx 2 0x211 s 8 1B 00 00 00 11 02 00 01 
00:00:11:1825 Rx 1 0x111 s 8 1B 00 00 00 11 01 00 00 
00:00:11:1833 Rx 2 0x210 s 8 37 00 00 00 10 02 00 01 
00:00:11:1833 Rx 1 0x110 s 8 37 00 00 00 10 01 00 00 
00:00:11:1835 Tx 2 0x18FF20EF x 8 00 00 00 00 00 00 00 00 
00:00:11:1835 Tx 1 0x54F x 8 00 00 00 00 00 00 00 00 
00:00:11:1836 Tx 1 0x28C x 8 00 00 00 00 00 00 00 00 
00:00:11:1843 Rx 2 0x210 s 8 38 00 00 00 10 02 00 01 
00:00:11:1843 Rx 1 0x110 s 8 38 00 00 00 10 01 00 00 
00:00:11:1845 Rx 1 0x111 s 8 1C 00 00 00 11 01 00 00 
00:00:11:1845 Rx 2 0x211 s 8 1C 00 00 00 11 02 00 01 
00:00:11:1853 Rx 2 0x210 s 8 39 00 00 00 10 02 00 01 
00:00:11:1853 Rx 1 0x110 s 8 39 00 00 00 10 01 00 00 
00:00:11:1863 Rx 2 0x210 s 8 3A 00 00 00 10 02 00 01 
00:00:11:1863 Rx 1 0x110 s 8 3A 00 00 00 10 01 00 00 
00:00:11:1865 Rx 2 0x211 s 8 1D 00 00 00 11 02 00 01 
00:00:11:1865 Rx 1 0x111 s 8 1D 00 00 00 11 01 00 00 
00:00:11:1873 Rx 1 0x110 s 8 3B 00 00 00 10 01 00 00 
00:00:11:1873 Rx 2 0x210 s 8 3B 00 00 00 10 02 00 01 
00:00:11:1883 Rx 2 0x200 s 8 06 00 00 00 00 02 01 01 
00:00:11:1883 Rx 1 0x100 s 8 06 00 00 00 00 01 01 00 
00:00:11:1885 Rx 1 0x101 s 8 03 00 00 00 01 01 01 00 
00:00:11:1885 Rx 2 0x201 s 8 03 00 00 00 01 02 01 01 
00:00:11:1886 Rx 2 0x210 s 8 3C 00 00 00 10 02 00 01 
00:00:11:1886 Rx 1 0x110 s 8 3C 00 00 00 10 01 00 00 
00:00:11:1887 Rx 1 0x111 s 8 1E 00 00 00 11 01 00 00 
00:00:11:1887 Rx 2 0x211 s 8 1E 00 00 00 11 02 00 01 
00:00:11:1893 Rx 1 0x110 s 8 3D 00 00 00 10 01 00 00 
00:00:11:1893 Rx 2 0x210 s 8 3D 00 00 00 10 02 00 01 
00:00:11:1903 Rx 2 0x210 s 8 3E 00 00 00 10 02 00 01 
00:00:11:1903 Rx 1 0x110 s 8 3E 00 00 00 10 01 00 00 
00:00:11:1905 Rx 1 0x111 s 8 1F 00 00 00 11 01 00 00 
00:00:11:1905 Rx 2 0x211 s 8 1F 00 00 00 11 02 00 01 
00:00:11:1913 Rx 1 0x110 s 8 3F 00 00 00 10 01 00 00 
00:00:11:1913 Rx 2 0x210 s 8 3F 00 00 00 10 02 00 01 
00:00:11:1923 Rx 1 0x110 s 8 40 00 00 00 10 01 00 00 
00:00:11:1923 Rx 2 0x210 s 8 40 00 00 00 10 02 00 01 
00:00:11:1925 Rx 2 0x211 s 8 20 00 00 00 11 02 00 01 
00:00:11:1925 Rx 1 0x111 s 8 20 00 00 00 11 01 00 00 
00:00:11:1933 Rx 1 0x110 s 8 41 00 00 00 10 01 00 00 
00:00:11:1933 Rx 2 0x210 s 8 41 00 00 00 10 02 00 01 
00:00:11:1943 Rx 2 0x210 s 8 42 00 00 00 10 02 00 01 
00:00:11:1943 Rx 1 0x110 s 8 42 00 00 00 10 01 00 00 
00:00:11:1945 Rx 2 0x211 s 8 21 00 00 00 11 02 00 01 
00:00:11:1945 Rx 1 0x111 s 8 21 00 00 00 11 01 00 00 
00:00:11:1953 Rx 1 0x110 s 8 43 00 00 00 10 01 00 00 
00:00:11:1953 Rx 2 0x210 s 8 43 00 00 00 10 02 00 01 
00:00:11:1963 Rx 2 0x210 s 8 44 00 00 00 10 02 00 01 
00:00:11:1963 Rx 1 0x110 s 8 44 00 00 00 10 01 00 00 
00:00:11:1965 Rx 1 0x111 s 8 22 00 00 00 11 01 00 00 
00:00:11:1965 Rx 2 0x211 s 8 22 00 00 00 11 02 00 01 
00:00:11:1973 Rx 2 0x210 s 8 45 00 00 00 10 02 00 01 
00:00:11:1973 Tx 1 0x54F x 8 00 00 00 00 00 00 00 00 
00:00:11:1975 Rx 1 0x110 s 8 45 00 00 00 10 01 00 00 
00:00:11:1975 Tx 2 0x18FF20EF x 8 00 00 00 00 00 00 00 00 
00:00:11:1976 Tx 1 0x28C x 8 00 00 00 00 00 00 00 00 
00:00:11:1983 Rx 1 0x100 s 8 07 00 00 00 00 01 01 00 
00:00:11:1983 Rx 2 0x200 s 8 07 00 00 00 00 02 01 01 
00:00:11:1985 Rx 2 0x210 s 8 46 00 00 00 10 02 00 01 
00:00:11:1985 Rx 1 0x110 s 8 46 00 00 00 10 01 00 00 
00:00:11:1986 Rx 1 0x111 s 8 23 00 00 00 11 01 00 00 
00:00:11:1986 Rx 2 0x211 s 8 23 00 00 00 11 02 00 01 
00:00:11:1993 Rx 2 0x210 s 8 47 00 00 00 10 02 00 01 
00:00:11:1993 Rx 1 0x110 s 8 47 00 00 00 10 01 00 00 
00:00:11:2003 Rx 1 0x110 s 8 48 00 00 00 10 01 00 00 
00:00:11:2003 Rx 2 0x210 s 8 48 00 00 00 10 02 00 01 
00:00:11:2005 Rx 2 0x211 s 8 24 00 00 00 11 02 00 01 
00:00:11:2005 Rx 1 0x111 s 8 24 00 00 00 11 01 00 00 
00:00:11:2013 Rx 2 0x210 s 8 49 00 00 00 10 02 00 01 
00:00:11:2013 Rx 1 0x110 s 8 49 00 00 00 10 01 00 00 
00:00:11:2023 Rx 1 0x110 s 8 4A 00 00 00 10 01 00 00 
00:00:11:2023 Rx 2 0x210 s 8 4A 00 00 00 10 02 00 01 
00:00:11:2025 Rx 2 0x211 s 8 25 00 00 00 11 02 00 01 
00:00:11:2025 Rx 1 0x111 s 8 25 00 00 00 11 01 00 00 
00:00:11:2033 Rx 2 0x210 s 8 4B 00 00 00 10 02 00 01 
00:00:11:2033 Rx 1 0x110 s 8 4B 00 00 00 10 01 00 00 
00:00:11:2043 Rx 1 0x110 s 8 4C 00 00 00 10 01 00 00 
00:00:11:2043 Rx 2 0x210 s 8 4C 00 00 00 10 02 00 01 
00:00:11:2045 Rx 2 0x211 s 8 26 00 00 00 11 02 00 01 
00:00:11:2045 Rx 1 0x111 s 8 26 00 00 00 11 01 00 00 
00:00:11:2053 Rx 2 0x210 s 8 4D 00 00 00 10 02 00 01 
00:00:11:2053 Rx 1 0x110 s 8 4D 00 00 00 10 01 00 00 
00:00:11:2063 Rx 1 0x110 s 8 4E 00 00 00 10 01 00 00 
00:00:11:2063 Rx 2 0x210 s 8 4E 00 00 00 10 02 00 01 
00:00:11:2065 Rx 2 0x211 s 8 27 00 00 00 11 02 00 01 
00:00:11:2065 Rx 1 0x111 s 8 27 00 00 00 11 01 00 00 
00:00:11:2073 Rx 1 0x110 s 8 4F 00 00 00 10 01 00 00 
00:00:11:2073 Rx 2 0x210 s 8 4F 00 00 00 10 02 00 01 
00:00:11:2083 Rx 2 0x200 s 8 08 00 00 00 00 02 01 01 
00:00:11:2083 Rx 1 0x100 s 8 08 00 00 00 00 01 01 00 
00:00:11:2085 Rx 1 0x101 s 8 04 00 00 00 01 01 01 00 
00:00:11:2085 Rx 2 0x201 s 8 04 00 00 00 01 02 01 01 
00:00:11:2086 Rx 2 0x210 s 8 50 00 00 00 10 02 00 01 
00:00:11:2086 Rx 1 0x110 s 8 50 00 00 00 10 01 00 00 
00:00:11:2087 Rx 1 0x111 s 8 28 00 00 00 11 01 00 00 
00:00:11:2087 Rx 2 0x211 s 8 28 00 00 00 11 02 00 01 
00:00:11:2093 Rx 1 0x110 s 8 51 00 00 00 10 01 00 00 
00:00:11:2093 Rx 2 0x210 s 8 51 00 00 00 10 02 00 01 
00:00:11:2103 Rx 1 0x110 s 8 52 00 00 00 10 01 00 00 
00:00:11:2103 Rx 2 0x210 s 8 52 00 00 00 10 02 00 01 
00:00:11:2105 Rx 2 0x211 s 8 29 00 00 00 11 02 00 01 
00:00:11:2105 Rx 1 0x111 s 8 29 00 00 00 11 01 00 00 
00:00:11:2113 Rx 1 0x110 s 8 53 00 00 00 10 01 00 00 
00:00:11:2113 Rx 2 0x210 s 8 53 00 00 00 10 02 00 01 
00:00:11:2123 Rx 2 0x210 s 8 54 00 00 00 10 02 00 01 
00:00:11:2123 Rx 1 0x110 s 8 54 00 00 00 10 01 00 00 
00:00:11:2125 Rx 1 0x111 s 8 2A 00 00 00 11 01 00 00 
00:00:11:2125 Rx 2 0x211 s 8 2A 00 00 00 11 02 00 01 
00:00:11:2133 Rx 1 0x110 s 8 55 00 00 00 10 01 00 00 
00:00:11:2133 Rx 2 0x210 s 8 55 00 00 00 10 02 00 01 
00:00:11:2143 Tx 1 0x54F x 8 00 00 00 00 00 00 00 00 
00:00:11:2143 Rx 2 0x210 s 8 56 00 00 00 10 02 00 01 
00:00:11:2144 Rx 1 0x110 s 8 56 00 00 00 10 01 00 00 
00:00:11:2145 Rx 2 0x211 s 8 2B 00 00 00 11 02 00 01 
00:00:11:2146 Tx 2 0x18FF20EF x 8 00 00 00 00 00 00 00 00 
00:00:11:2146 Tx 1 0x28C x 8 00 00 00 00 00 00 00 00 
00:00:11:2147 Rx 1 0x111 s 8 2B 00 00 00 11 01 00 00 
00:00:11:2153 Rx 1 0x110 s 8 57 00 00 00 10 01 00 00 
00:00:11:2153 Rx 2 0x210 s 8 57 00 00 00 10 02 00 01 
00:00:11:2163 Rx 2 0x210 s 8 58 00 00 00 10 02 00 01 
00:00:11:2163 Rx 1 0x110 s 8 58 00 00 00 10 01 00 00 
00:00:11:2165 Rx 1 0x111 s 8 2C 00 00 00 11 01 00 00 
00:00:11:2165 Rx 2 0x211 s 8 2C 00 00 00 11 02 00 01 
00:00:11:2173 Rx 1 0x110 s 8 59 00 00 00 10 01 00 00 
00:00:11:2173 Rx 2 0x210 s 8 59 00 00 00 10 02 00 01 
00:00:11:2183 Rx 1 0x100 s 8 09 00 00 00 00 01 01 00 
00:00:11:2183 Rx 2 0x200 s 8 09 00 00 00 00 02 01 01 
00:00:11:2185 Rx 1 0x110 s 8 5A 00 00 00 10 01 00 00 
00:00:11:2185 Rx 2 0x210 s 8 5A 00 00 00 10 02 00 01 
00:00:11:2186 Rx 2 0x211 s 8 2D 00 00 00 11 02 00 01 
00:00:11:2186 Rx 1 0x111 s 8 2D 00 00 00 11 01 00 00 
00:00:11:2193 Rx 1 0x110 s 8 5B 00 00 00 10 01 00 00 
00:00:11:2193 Rx 2 0x210 s 8 5B 00 00 00 10 02 00 01 
00:00:11:2203 Rx 2 0x210 s 8 5C 00 00 00 10 02 00 01 
00:00:11:2203 Rx 1 0x110 s 8 5C 00 00 00 10 01 00 00 
00:00:11:2205 Rx 1 0x111 s 8 2E 00 00 00 11 01 00 00 
00:00:11:2205 Rx 2 0x211 s 8 2E 00 00 00 11 02 00 01 
00:00:11:2213 Rx 1 0x110 s 8 5D 00 00 00 10 01 00 00 
00:00:11:2213 Rx 2 0x210 s 8 5D 00 00 00 10 02 00 01 
00:00:11:2223 Rx 1 0x110 s 8 5E 00 00 00 10 01 00 00 
00:00:11:2223 Rx 2 0x210 s 8 5E 00 00 00 10 02 00 01 
00:00:11:2225 Rx 2 0x211 s 8 2F 00 00 00 11 02 00 01 
00:00:11:2225 Rx 1 0x111 s 8 2F 00 00 00 11 01 00 00 
00:00:11:2233 Rx 1 0x110 s 8 5F 00 00 00 10 01 00 00 
00:00:11:2233 Rx 2 0x210 s 8 5F 00 00 00 10 02 00 01 
00:00:11:2243 Rx 2 0x210 s 8 60 00 00 00 10 02 00 01 
00:00:11:2243 Rx 1 0x110 s 8 60 00 00 00 10 01 00 00 
00:00:11:2245 Rx 1 0x111 s 8 30 00 00 00 11 01 00 00 
00:00:11:2245 Rx 2 0x211 s 8 30 00 00 00 11 02 00 01 
00:00:11:2253 Rx 2 0x210 s 8 61 00 00 00 10 02 00 01 
00:00:11:2253 Rx 1 0x110 s 8 61 00 00 00 10 01 00 00 
00:00:11:2263 Rx 2 0x210 s 8 62 00 00 00 10 02 00 01 
00:00:11:2263 Rx 1 0x110 s 8 62 00 00 00 10 01 00 00 
00:00:11:2265 Rx 1 0x111 s 8 31 00 00 00 11 01 00 00 
00:00:11:2265 Rx 2 0x211 s 8 31 00 00 00 11 02 00 01 
00:00:11:2273 Rx 1 0x110 s 8 63 00 00 00 10 01 00 00 
00:00:11:2273 Rx 2 0x210 s 8 63 00 00 00 10 02 00 01 
00:00:11:2283 Rx 2 0x200 s 8 0A 00 00 00 00 02 01 01 
00:00:11:2283 Rx 1 0x100 s 8 0A 00 00 00 00 01 01 00 
00:00:11:2285 Rx 1 0x101 s 8 05 00 00 00 01 01 01 00 
00:00:11:2285 Rx 2 0x201 s 8 05 00 00 00 01 02 01 01 
00:00:11:2286 Rx 2 0x210 s 8 64 00 00 00 10 02 00 01 
00:00:11:2286 Rx 1 0x110 s 8 64 00 00 00 10 01 00 00 
00:00:11:2287 Rx 1 0x111 s 8 32 00 00 00 11 01 00 00 
00:00:11:2287 Rx 2 0x211 s 8 32 00 00 00 11 02 00 01 
00:00:11:2293 Rx 1 0x110 s 8 65 00 00 00 10 01 00 00 
00:00:11:2293 Rx 2 0x210 s 8 65 00 00 00 10 02 00 01 
00:00:11:2303 Rx 2 0x210 s 8 66 00 00 00 10 02 00 01 
00:00:11:2303 Rx 1 0x110 s 8 66 00 00 00 10 01 00 00 
00:00:11:2305 Rx 2 0x211 s 8 33 00 00 00 11 02 00 01 
00:00:11:2305 Tx 1 0x54F x 8 00 00 00 00 00 00 00 00 
00:00:11:2306 Tx 2 0x18FF20EF x 8 00 00 00 00 00 00 00 00 
00:00:11:2306 Rx 1 0x111 s 8 33 00 00 00 11 01 00 00 
00:00:11:2308 Tx 1 0x28C x 8 00 00 00 00 00 00 00 00 
00:00:11:2313 Rx 2 0x210 s 8 67 00 00 00 10 02 00 01 
00:00:11:2313 Rx 1 0x110 s 8 67 00 00 00 10 01 00 00 
00:00:11:2323 Rx 1 0x110 s 8 68 00 00 00 10 01 00 00 
00:00:11:2323 Rx 2 0x210 s 8 68 00 00 00 10 02 00 01 
00:00:11:2325 Rx 2 0x211 s 8 34 00 00 00 11 02 00 01 
00:00:11:2325 Rx 1 0x111 s 8 34 00 00 00 11 01 00 00 
00:00:11:2333 Rx 2 0x210 s 8 69 00 00 00 10 02 00 01 
00:00:11:2333 Rx 1 0x110 s 8 69 00 00 00 10 01 00 00 
00:00:11:2343 Rx 1 0x110 s 8 6A 00 00 00 10 01 00 00 
00:00:11:2343 Rx 2 0x210 s 8 6A 00 00 00 10 02 00 01 
00:00:11:2345 Rx 2 0x211 s 8 35 00 00 00 11 02 00 01 
00:00:11:2345 Rx 1 0x111 s 8 35 00 00 00 11 01 00 00 
00:00:11:2353 Rx 2 0x210 s 8 6B 00 00 00 10 02 00 01 
00:00:11:2353 Rx 1 0x110 s 8 6B 00 00 00 10 01 00 00 
00:00:11:2363 Rx 1 0x110 s 8 6C 00 00 00 10 01 00 00 
00:00:11:2363 Rx 2 0x210 s 8 6C 00 00 00 10 02 00 01 
00:00:11:2365 Rx 2 0x211 s 8 36 00 00 00 11 02 00 01 
00:00:11:2365 Rx 1 0x111 s 8 36 00 00 00 11 01 00 00 
00:00:11:2373 Rx 2 0x210 s 8 6D 00 00 00 10 02 00 01 
00:00:11:2373 Rx 1 0x110 s 8 6D 00 00 00 10 01 00 00 
00:00:11:2383 Rx 1 0x100 s 8 0B 00 00 00 00 01 01 00 
00:00:11:2383 Rx 2 0x200 s 8 0B 00 00 00 00 02 01 01 
00:00:11:2385 Rx 2 0x210 s 8 6E 00 00 00 10 02 00 01 
00:00:11:2385 Rx 1 0x110 s 8 6E 00 00 00 10 01 00 00 
00:00:11:2386 Rx 1 0x111 s 8 37 00 00 00 11 01 00 00 
00:00:11:2386 Rx 2 0x211 s 8 37 00 00 00 11 02 00 01 
00:00:11:2393 Rx 2 0x210 s 8 6F 00 00 00 10 02 00 01 
00:00:11:2393 Rx 1 0x110 s 8 6F 00 00 00 10 01 00 00 
00:00:11:2403 Rx 2 0x210 s 8 70 00 00 00 10 02 00 01 
00:00:11:2403 Rx 1 0x110 s 8 70 00 00 00 10 01 00 00 
00:00:11:2405 Rx 1 0x111 s 8 38 00 00 00 11 01 00 00 
00:00:11:2405 Rx 2 0x211 s 8 38 00 00 00 11 02 00 01 
00:00:11:2413 Rx 2 0x210 s 8 71 00 00 00 10 02 00 01 
00:00:11:2413 Rx 1 0x110 s 8 71 00 00 00 10 01 00 00 
00:00:11:2423 Rx 1 0x110 s 8 72 00 00 00 10 01 00 00 
00:00:11:2423 Rx 2 0x210 s 8 72 00 00 00 10 02 00 01 
00:00:11:2425 Rx 2 0x211 s 8 39 00 00 00 11 02 00 01 
00:00:11:2425 Rx 1 0x111 s 8 39 00 00 00 11 01 00 00 
00:00:11:2433 Rx 1 0x110 s 8 73 00 00 00 10 01 00 00 
00:00:11:2433 Rx 2 0x210 s 8 73 00 00 00 10 02 00 01 
00:00:11:2443 Rx 1 0x110 s 8 74 00 00 00 10 01 00 00 
00:00:11:2443 Rx 2 0x210 s 8 74 00 00 00 10 02 00 01 
00:00:11:2445 Rx 1 0x111 s 8 3A 00 00 00 11 01 00 00 
00:00:11:2445 Rx 2 0x211 s 8 3A 00 00 00 11 02 00 01 
00:00:11:2453 Rx 1 0x110 s 8 75 00 00 00 10 01 00 00 
00:00:11:2453 Rx 2 0x210 s 8 75 00 00 00 10 02 00 01 
00:00:11:2455 Tx 1 0x54F x 8 00 00 00 00 00 00 00 00 
00:00:11:2455 Tx 2 0x18FF20EF x 8 00 00 00 00 00 00 00 00 
00:00:11:2456 Tx 1 0x28C x 8 00 00 00 00 00 00 00 00 
00:00:11:2463 Rx 2 0x210 s 8 76 00 00 00 10 02 00 01 
00:00:11:2463 Rx 1 0x110 s 8 76 00 00 00 10 01 00 00 
00:00:11:2465 Rx 1 0x111 s 8 3B 00 00 00 11 01 00 00 
00:00:11:2465 Rx 2 0x211 s 8 3B 00 00 00 11 02 00 01 
00:00:11:2473 Rx 1 0x110 s 8 77 00 00 00 10 01 00 00 
00:00:11:2473 Rx 2 0x210 s 8 77 00 00 00 10 02 00 01 
00:00:11:2483 Rx 2 0x200 s 8 0C 00 00 00 00 02 01 01 
00:00:11:2483 Rx 1 0x100 s 8 0C 00 00 00 00 01 01 00 
00:00:11:2485 Rx 1 0x101 s 8 06 00 00 00 01 01 01 00 
00:00:11:2485 Rx 2 0x201 s 8 06 00 00 00 01 02 01 01 
00:00:11:2486 Rx 2 0x210 s 8 78 00 00 00 10 02 00 01 
00:00:11:2486 Rx 1 0x110 s 8 78 00 00 00 10 01 00 00 
00:00:11:2487 Rx 1 0x111 s 8 3C 00 00 00 11 01 00 00 
00:00:11:2487 Rx 2 0x211 s 8 3C 00 00 00 11 02 00 01 
00:00:11:2493 Rx 1 0x110 s 8 79 00 00 00 10 01 00 00 
00:00:11:2493 Rx 2 0x210 s 8 79 00 00 00 10 02 00 01 
00:00:11:2503 Rx 2 0x210 s 8 7A 00 00 00 10 02 00 01 
00:00:11:2503 Rx 1 0x110 s 8 7A 00 00 00 10 01 00 00 
00:00:11:2505 Rx 1 0x111 s 8 3D 00 00 00 11 01 00 00 
00:00:11:2505 Rx 2 0x211 s 8 3D 00 00 00 11 02 00 01 
00:00:11:2513 Rx 1 0x110 s 8 7B 00 00 00 10 01 00 00 
00:00:11:2513 Rx 2 0x210 s 8 7B 00 00 00 10 02 00 01 
00:00:11:2523 Rx 2 0x210 s 8 7C 00 00 00 10 02 00 01 
00:00:11:2523 Rx 1 0x110 s 8 7C 00 00 00 10 01 00 00 
00:00:11:2525 Rx 1 0x111 s 8 3E 00 00 00 11 01 00 00 
00:00:11:2525 Rx 2 0x211 s 8 3E 00 00 00 11 02 00 01 
00:00:11:2533 Rx 1 0x110 s 8 7D 00 00 00 10 01 00 00 
00:00:11:2533 Rx 2 0x210 s 8 7D 00 00 00 10 02 00 01 
00:00:11:2543 Rx 1 0x110 s 8 7E 00 00 00 10 01 00 00 
00:00:11:2543 Rx 2 0x210 s 8 7E 00 00 00 10 02 00 01 
00:00:11:2545 Rx 2 0x211 s 8 3F 00 00 00 11 02 00 01 
00:00:11:2545 Rx 1 0x111 s 8 3F 00 00 00 11 01 00 00 
00:00:11:2553 Rx 1 0x110 s 8 7F 00 00 00 10 01 00 00 
00:00:11:2553 Rx 2 0x210 s 8 7F 00 00 00 10 02 00 01 
00:00:11:2563 Rx 1 0x110 s 8 80 00 00 00 10 01 00 00 
00:00:11:2563 Rx 2 0x210 s 8 80 00 00 00 10 02 00 01 
00:00:11:2565 Rx 2 0x211 s 8 40 00 00 00 11 02 00 01 
00:00:11:2565 Rx 1 0x111 s 8 40 00 00 00 11 01 00 00 
00:00:11:2573 Rx 1 0x110 s 8 81 00 00 00 10 01 00 00 
00:00:11:2573 Rx 2 0x210 s 8 81 00 00 00 10 02 00 01 
00:00:11:2583 Rx 2 0x200 s 8 0D 00 00 00 00 02 01 01 
00:00:11:2583 Rx 1 0x100 s 8 0D 00 00 00 00 01 01 00 
00:00:11:2585 Rx 1 0x110 s 8 82 00 00 00 10 01 00 00 
00:00:11:2585 Rx 2 0x210 s 8 82 00 00 00 10 02 00 01 
00:00:11:2586 Rx 2 0x211 s 8 41 00 00 00 11 02 00 01 
00:00:11:2586 Rx 1 0x111 s 8 41 00 00 00 11 01 00 00 
00:00:11:2593 Rx 1 0x110 s 8 83 00 00 00 10 01 00 00 
00:00:11:2593 Rx 2 0x210 s 8 83 00 00 00 10 02 00 01 
00:00:11:2603 Rx 2 0x210 s 8 84 00 00 00 10 02 00 01 
00:00:11:2603 Rx 1 0x110 s 8 84 00 00 00 10 01 00 00 
00:00:11:2605 Rx 1 0x111 s 8 42 00 00 00 11 01 00 00 
00:00:11:2605 Rx 2 0x211 s 8 42 00 00 00 11 02 00 01 
00:00:11:2613 Rx 2 0x210 s 8 85 00 00 00 10 02 00 01 
00:00:11:2613 Rx 1 0x110 s 8 85 00 00 00 10 01 00 00 
00:00:11:2615 Tx 2 0x18FF20EF x 8 00 00 00 00 00 00 00 00 
00:00:11:2615 Tx 1 0x54F x 8 00 00 00 00 00 00 00 00 
00:00:11:2616 Tx 1 0x28C x 8 00 00 00 00 00 00 00 00 
00:00:11:2623 Rx 2 0x210 s 8 86 00 00 00 10 02 00 01 
00:00:11:2623 Rx 1 0x110 s 8 86 00 00 00 10 01 00 00 
00:00:11:2625 Rx 2 0x211 s 8 43 00 00 00 11 02 00 01 
00:00:11:2625 Rx 1 0x111 s 8 43 00 00 00 11 01 00 00 
00:00:11:2633 Rx 2 0x210 s 8 87 00 00 00 10 02 00 01 
00:00:11:2633 Rx 1 0x110 s 8 87 00 00 00 10 01 00 00 
00:00:11:2643 Rx 1 0x110 s 8 88 00 00 00 10 01 00 00 
00:00:11:2643 Rx 2 0x210 s 8 88 00 00 00 10 02 00 01 
00:00:11:2645 Rx 2 0x211 s 8 44 00 00 00 11 02 00 01 
00:00:11:2645 Rx 1 0x111 s 8 44 00 00 00 11 01 00 00 
00:00:11:2653 Rx 2 0x210 s 8 89 00 00 00 10 02 00 01 
00:00:11:2653 Rx 1 0x110 s 8 89 00 00 00 10 01 00 00 
00:00:11:2663 Rx 1 0x110 s 8 8A 00 00 00 10 01 00 00 
00:00:11:2663 Rx 2 0x210 s 8 8A 00 00 00 10 02 00 01 
00:00:11:2665 Rx 2 0x211 s 8 45 00 00 00 11 02 00 01 
00:00:11:2665 Rx 1 0x111 s 8 45 00 00 00 11 01 00 00 
00:00:11:2673 Rx 2 0x210 s 8 8B 00 00 00 10 02 00 01 
00:00:11:2673 Rx 1 0x110 s 8 8B 00 00 00 10 01 00 00 
00:00:11:2683 Rx 1 0x100 s 8 0E 00 00 00 00 01 01 00 
00:00:11:2683 Rx 2 0x200 s 8 0E 00 00 00 00 02 01 01 
00:00:11:2685 Rx 2 0x201 s 8 07 00 00 00 01 02 01 01 
00:00:11:2685 Rx 1 0x101 s 8 07 00 00 00 01 01 01 00 
00:00:11:2686 Rx 1 0x110 s 8 8C 00 00 00 10 01 00 00 
00:00:11:2686 Rx 2 0x210 s 8 8C 00 00 00 10 02 00 01 
00:00:11:2687 Rx 2 0x211 s 8 46 00 00 00 11 02 00 01 
00:00:11:2687 Rx 1 0x111 s 8 46 00 00 00 11 01 00 00 
00:00:11:2693 Rx 1 0x110 s 8 8D 00 00 00 10 01 00 00 
00:00:11:2693 Rx 2 0x210 s 8 8D 00 00 00 10 02 00 01 
00:00:11:2703 Rx 2 0x210 s 8 8E 00 00 00 10 02 00 01 
00:00:11:2703 Rx 1 0x110 s 8 8E 00 00 00 10 01 00 00 
00:00:11:2705 Rx 2 0x211 s 8 47 00 00 00 11 02 00 01 
00:00:11:2705 Rx 1 0x111 s 8 47 00 00 00 11 01 00 00 
00:00:11:2713 Rx 1 0x110 s 8 8F 00 00 00 10 01 00 00 
00:00:11:2713 Rx 2 0x210 s 8 8F 00 00 00 10 02 00 01 
00:00:11:2723 Rx 2 0x210 s 8 90 00 00 00 10 02 00 01 
00:00:11:2723 Rx 1 0x110 s 8 90 00 00 00 10 01 00 00 
00:00:11:2725 Rx 1 0x111 s 8 48 00 00 00 11 01 00 00 
00:00:11:2725 Rx 2 0x211 s 8 48 00 00 00 11 02 00 01 
00:00:11:2733 Rx 1 0x110 s 8 91 00 00 00 10 01 00 00 
00:00:11:2733 Rx 2 0x210 s 8 91 00 00 00 10 02 00 01 
00:00:11:2743 Rx 2 0x210 s 8 92 00 00 00 10 02 00 01 
00:00:11:2743 Rx 1 0x110 s 8 92 00 00 00 10 01 00 00 
00:00:11:2745 Rx 2 0x211 s 8 49 00 00 00 11 02 00 01 
00:00:11:2745 Rx 1 0x111 s 8 49 00 00 00 11 01 00 00 
00:00:11:2753 Rx 1 0x110 s 8 93 00 00 00 10 01 00 00 
00:00:11:2753 Rx 2 0x210 s 8 93 00 00 00 10 02 00 01 
00:00:11:2763 Rx 1 0x110 s 8 94 00 00 00 10 01 00 00 
00:00:11:2763 Rx 2 0x210 s 8 94 00 00 00 10 02 00 01 
00:00:11:2765 Rx 2 0x211 s 8 4A 00 00 00 11 02 00 01 
00:00:11:2765 Rx 1 0x111 s 8 4A 00 00 00 11 01 00 00 
00:00:11:2773 Rx 2 0x210 s 8 95 00 00 00 10 02 00 01 
00:00:11:2773 Rx 1 0x110 s 8 95 00 00 00 10 01 00 00 
00:00:11:2775 Tx 2 0x18FF20EF x 8 00 00 00 00 00 00 00 00 
00:00:11:2775 Tx 1 0x54F x 8 00 00 00 00 00 00 00 00 
00:00:11:2776 Tx 1 0x28C x 8 00 00 00 00 00 00 00 00 
00:00:11:2783 Rx 1 0x100 s 8 0F 00 00 00 00 01 01 00 
00:00:11:2783 Rx 2 0x200 s 8 0F 00 00 00 00 02 01 01 
00:00:11:2785 Rx 2 0x210 s 8 96 00 00 00 10 02 00 01 
00:00:11:2785 Rx 1 0x110 s 8 96 00 00 00 10 01 00 00 
00:00:11:2786 Rx 1 0x111 s 8 4B 00 00 00 11 01 00 00 
00:00:11:2786 Rx 2 0x211 s 8 4B 00 00 00 11 02 00 01 
00:00:11:2793 Rx 2 0x210 s 8 97 00 00 00 10 02 00 01 
00:00:11:2793 Rx 1 0x110 s 8 97 00 00 00 10 01 00 00 
00:00:11:2803 Rx 2 0x210 s 8 98 00 00 00 10 02 00 01 
00:00:11:2803 Rx 1 0x110 s 8 98 00 00 00 10 01 00 00 
00:00:11:2805 Rx 2 0x211 s 8 4C 00 00 00 11 02 00 01 
00:00:11:2805 Rx 1 0x111 s 8 4C 00 00 00 11 01 00 00 
00:00:11:2813 Rx 2 0x210 s 8 99 00 00 00 10 02 00 01 
00:00:11:2813 Rx 1 0x110 s 8 99 00 00 00 10 01 00 00 
00:00:11:2823 Rx 1 0x110 s 8 9A 00 00 00 10 01 00 00 
00:00:11:2823 Rx 2 0x210 s 8 9A 00 00 00 10 02 00 01 
00:00:11:2825 Rx 2 0x211 s 8 4D 00 00 00 11 02 00 01 
00:00:11:2825 Rx 1 0x111 s 8 4D 00 00 00 11 01 00 00 
00:00:11:2833 Rx 2 0x210 s 8 9B 00 00 00 10 02 00 01 
00:00:11:2833 Rx 1 0x110 s 8 9B 00 00 00 10 01 00 00 
00:00:11:2843 Rx 1 0x110 s 8 9C 00 00 00 10 01 00 00 
00:00:11:2843 Rx 2 0x210 s 8 9C 00 00 00 10 02 00 01 
00:00:11:2845 Rx 2 0x211 s 8 4E 00 00 00 11 02 00 01 
00:00:11:2845 Rx 1 0x111 s 8 4E 00 00 00 11 01 00 00 
00:00:11:2853 Rx 2 0x210 s 8 9D 00 00 00 10 02 00 01 
00:00:11:2853 Rx 1 0x110 s 8 9D 00 00 00 10 01 00 00 
00:00:11:2863 Rx 1 0x110 s 8 9E 00 00 00 10 01 00 00 
00:00:11:2863 Rx 2 0x210 s 8 9E 00 00 00 10 02 00 01 
00:00:11:2865 Rx 2 0x211 s 8 4F 00 00 00 11 02 00 01 
00:00:11:2865 Rx 1 0x111 s 8 4F 00 00 00 11 01 00 00 
00:00:11:2873 Rx 2 0x210 s 8 9F 00 00 00 10 02 00 01 
00:00:11:2873 Rx 1 0x110 s 8 9F 00 00 00 10 01 00 00 
00:00:11:2883 Rx 2 0x200 s 8 10 00 00 00 00 02 01 01 
00:00:11:2883 Rx 1 0x100 s 8 10 00 00 00 00 01 01 00 
00:00:11:2885 Rx 1 0x101 s 8 08 00 00 00 01 01 01 00 
00:00:11:2885 Rx 2 0x201 s 8 08 00 00 00 01 02 01 01 
00:00:11:2886 Rx 2 0x210 s 8 A0 00 00 00 10 02 00 01 
00:00:11:2886 Rx 1 0x110 s 8 A0 00 00 00 10 01 00 00 
00:00:11:2887 Rx 1 0x111 s 8 50 00 00 00 11 01 00 00 
00:00:11:2887 Rx 2 0x211 s 8 50 00 00 00 11 02 00 01 
00:00:11:2893 Rx 1 0x110 s 8 A1 00 00 00 10 01 00 00 
00:00:11:2893 Rx 2 0x210 s 8 A1 00 00 00 10 02 00 01 
00:00:11:2903 Rx 2 0x210 s 8 A2 00 00 00 10 02 00 01 
00:00:11:2903 Rx 1 0x110 s 8 A2 00 00 00 10 01 00 00 
00:00:11:2905 Rx 1 0x111 s 8 51 00 00 00 11 01 00 00 
00:00:11:2905 Rx 2 0x211 s 8 51 00 00 00 11 02 00 01 
00:00:11:2913 Rx 1 0x110 s 8 A3 00 00 00 10 01 00 00 
00:00:11:2913 Rx 2 0x210 s 8 A3 00 00 00 10 02 00 01 
00:00:11:2923 Rx 2 0x210 s 8 A4 00 00 00 10 02 00 01 
00:00:11:2923 Rx 1 0x110 s 8 A4 00 00 00 10 01 00 00 
00:00:11:2925 Rx 1 0x111 s 8 52 00 00 00 11 01 00 00 
00:00:11:2925 Rx 2 0x211 s 8 52 00 00 00 11 02 00 01 
00:00:11:2933 Rx 2 0x210 s 8 A5 00 00 00 10 02 00 01 
00:00:11:2933 Rx 1 0x110 s 8 A5 00 00 00 10 01 00 00 
00:00:11:2935 Tx 2 0x18FF20EF x 8 00 00 00 00 00 00 00 00 
00:00:11:2935 Tx 1 0x54F x 8 00 00 00 00 00 00 00 00 
00:00:11:2936 Tx 1 0x28C x 8 00 00 00 00 00 00 00 00 
00:00:11:2943 Rx 2 0x210 s 8 A6 00 00 00 10 02 00 01 
00:00:11:2943 Rx 1 0x110 s 8 A6 00 00 00 10 01 00 00 
00:00:11:2945 Rx 1 0x111 s 8 53 00 00 00 11 01 00 00 
00:00:11:2945 Rx 2 0x211 s 8 53 00 00 00 11 02 00 01 
00:00:11:2953 Rx 1 0x110 s 8 A7 00 00 00 10 01 00 00 
00:00:11:2953 Rx 2 0x210 s 8 A7 00 00 00 10 02 00 01 
00:00:11:2963 Rx 2 0x210 s 8 A8 00 00 00 10 02 00 01 
00:00:11:2963 Rx 1 0x110 s 8 A8 00 00 00 10 01 00 00 
00:00:11:2965 Rx 1 0x111 s 8 54 00 00 00 11 01 00 00 
00:00:11:2965 Rx 2 0x211 s 8 54 00 00 00 11 02 00 01 
00:00:11:2973 Rx 2 0x210 s 8 A9 00 00 00 10 02 00 01 
00:00:11:2973 Rx 1 0x110 s 8 A9 00 00 00 10 01 00 00 
00:00:11:2983 Rx 2 0x200 s 8 11 00 00 00 00 02 01 01 
00:00:11:2983 Rx 1 0x100 s 8 11 00 00 00 00 01 01 00 
00:00:11:2985 Rx 1 0x110 s 8 AA 00 00 00 10 01 00 00 
00:00:11:2985 Rx 2 0x210 s 8 AA 00 00 00 10 02 00 01 
00:00:11:2986 Rx 2 0x211 s 8 55 00 00 00 11 02 00 01 
00:00:11:2986 Rx 1 0x111 s 8 55 00 00 00 11 01 00 00 
00:00:11:2993 Rx 1 0x110 s 8 AB 00 00 00 10 01 00 00 
00:00:11:2993 Rx 2 0x210 s 8 AB 00 00 00 10 02 00 01 
00:00:11:3003 Rx 2 0x210 s 8 AC 00 00 00 10 02 00 01 
00:00:11:3003 Rx 1 0x110 s 8 AC 00 00 00 10 01 00 00 
00:00:11:3005 Rx 1 0x111 s 8 56 00 00 00 11 01 00 00 
00:00:11:3005 Rx 2 0x211 s 8 56 00 00 00 11 02 00 01 
00:00:11:3013 Rx 1 0x110 s 8 AD 00 00 00 10 01 00 00 
00:00:11:3013 Rx 2 0x210 s 8 AD 00 00 00 10 02 00 01 
00:00:11:3023 Rx 2 0x210 s 8 AE 00 00 00 10 02 00 01 
00:00:11:3023 Rx 1 0x110 s 8 AE 00 00 00 10 01 00 00 
00:00:11:3025 Rx 1 0x111 s 8 57 00 00 00 11 01 00 00 
00:00:11:3025 Rx 2 0x211 s 8 57 00 00 00 11 02 00 01 
00:00:11:3033 Rx 1 0x110 s 8 AF 00 00 00 10 01 00 00 
00:00:11:3033 Rx 2 0x210 s 8 AF 00 00 00 10 02 00 01 
00:00:11:3043 Rx 1 0x110 s 8 B0 00 00 00 10 01 00 00 
00:00:11:3043 Rx 2 0x210 s 8 B0 00 00 00 10 02 00 01 
00:00:11:3045 Rx 1 0x111 s 8 58 00 00 00 11 01 00 00 
00:00:11:3045 Rx 2 0x211 s 8 58 00 00 00 11 02 00 01 
00:00:11:3053 Rx 2 0x210 s 8 B1 00 00 00 10 02 00 01 
00:00:11:3053 Rx 1 0x110 s 8 B1 00 00 00 10 01 00 00 
00:00:11:3063 Rx 1 0x110 s 8 B2 00 00 00 10 01 00 00 
00:00:11:3063 Rx 2 0x210 s 8 B2 00 00 00 10 02 00 01 
00:00:11:3065 Rx 2 0x211 s 8 59 00 00 00 11 02 00 01 
00:00:11:3065 Rx 1 0x111 s 8 59 00 00 00 11 01 00 00 
00:00:11:3073 Rx 2 0x210 s 8 B3 00 00 00 10 02 00 01 
00:00:11:3073 Rx 1 0x110 s 8 B3 00 00 00 10 01 00 00 
00:00:11:3083 Rx 1 0x100 s 8 12 00 00 00 00 01 01 00 
00:00:11:3083 Rx 2 0x200 s 8 12 00 00 00 00 02 01 01 
00:00:11:3085 Rx 2 0x201 s 8 09 00 00 00 01 02 01 01 
00:00:11:3085 Rx 1 0x101 s 8 09 00 00 00 01 01 01 00 
00:00:11:3086 Rx 1 0x110 s 8 B4 00 00 00 10 01 00 00 
00:00:11:3086 Rx 2 0x210 s 8 B4 00 00 00 10 02 00 01 
00:00:11:3087 Rx 2 0x211 s 8 5A 00 00 00 11 02 00 01 
00:00:11:3087 Rx 1 0x111 s 8 5A 00 00 00 11 01 00 00 
00:00:11:3093 Rx 2 0x210 s 8 B5 00 00 00 10 02 00 01 
00:00:11:3093 Rx 1 0x110 s 8 B5 00 00 00 10 01 00 00 
00:00:11:3103 Rx 2 0x210 s 8 B6 00 00 00 10 02 00 01 
00:00:11:3103 Rx 1 0x110 s 8 B6 00 00 00 10 01 00 00 
00:00:11:3105 Rx 2 0x211 s 8 5B 00 00 00 11 02 00 01 
00:00:11:3105 Tx 1 0x54F x 8 00 00 00 00 00 00 00 00 
00:00:11:3106 Tx 2 0x18FF20EF x 8 00 00 00 00 00 00 00 00 
00:00:11:3106 Rx 1 0x111 s 8 5B 00 00 00 11 01 00 00 
00:00:11:3107 Tx 1 0x28C x 8 00 00 00 00 00 00 00 00 
00:00:11:3113 Rx 1 0x110 s 8 B7 00 00 00 10 01 00 00 
00:00:11:3113 Rx 2 0x210 s 8 B7 00 00 00 10 02 00 01 
00:00:11:3123 Rx 2 0x210 s 8 B8 00 00 00 10 02 00 01 
00:00:11:3123 Rx 1 0x110 s 8 B8 00 00 00 10 01 00 00 
00:00:11:3125 Rx 1 0x111 s 8 5C 00 00 00 11 01 00 00 
00:00:11:3125 Rx 2 0x211 s 8 5C 00 00 00 11 02 00 01 
00:00:11:3133 Rx 1 0x110 s 8 B9 00 00 00 10 01 00 00 
00:00:11:3133 Rx 2 0x210 s 8 B9 00 00 00 10 02 00 01 
00:00:11:3143 Rx 2 0x210 s 8 BA 00 00 00 10 02 00 01 
00:00:11:3143 Rx 1 0x110 s 8 BA 00 00 00 10 01 00 00 
00:00:11:3145 Rx 1 0x111 s 8 5D 00 00 00 11 01 00 00 
00:00:11:3145 Rx 2 0x211 s 8 5D 00 00 00 11 02 00 01 
00:00:11:3153 Rx 2 0x210 s 8 BB 00 00 00 10 02 00 01 
00:00:11:3153 Rx 1 0x110 s 8 BB 00 00 00 10 01 00 00 
00:00:11:3163 Rx 2 0x210 s 8 BC 00 00 00 10 02 00 01 
00:00:11:3163 Rx 1 0x110 s 8 BC 00 00 00 10 01 00 00 
00:00:11:3165 Rx 1 0x111 s 8 5E 00 00 00 11 01 00 00 
00:00:11:3165 Rx 2 0x211 s 8 5E 00 00 00 11 02 00 01 
00:00:11:3173 Rx 1 0x110 s 8 BD 00 00 00 10 01 00 00 
00:00:11:3173 Rx 2 0x210 s 8 BD 00 00 00 10 02 00 01 
00:00:11:3183 Rx 1 0x100 s 8 13 00 00 00 00 01 01 00 
00:00:11:3184 Rx 2 0x200 s 8 13 00 00 00 00 02 01 01 
00:00:11:3185 Rx 1 0x110 s 8 BE 00 00 00 10 01 00 00 
00:00:11:3185 Rx 2 0x210 s 8 BE 00 00 00 10 02 00 01 
00:00:11:3186 Rx 2 0x211 s 8 5F 00 00 00 11 02 00 01 
00:00:11:3186 Rx 1 0x111 s 8 5F 00 00 00 11 01 00 00 
00:00:11:3193 Rx 1 0x110 s 8 BF 00 00 00 10 01 00 00 
00:00:11:3193 Rx 2 0x210 s 8 BF 00 00 00 10 02 00 01 
00:00:11:3203 Rx 2 0x210 s 8 C0 00 00 00 10 02 00 01 
00:00:11:3203 Rx 1 0x110 s 8 C0 00 00 00 10 01 00 00 
00:00:11:3205 Rx 1 0x111 s 8 60 00 00 00 11 01 00 00 
00:00:11:3205 Rx 2 0x211 s 8 60 00 00 00 11 02 00 01 
00:00:11:3213 Rx 1 0x110 s 8 C1 00 00 00 10 01 00 00 
00:00:11:3214 Rx 2 0x210 s 8 C1 00 00 00 10 02 00 01 
00:00:11:3223 Rx 1 0x110 s 8 C2 00 00 00 10 01 00 00 
00:00:11:3223 Rx 2 0x210 s 8 C2 00 00 00 10 02 00 01 
00:00:11:3225 Rx 2 0x211 s 8 61 00 00 00 11 02 00 01 
00:00:11:3225 Rx 1 0x111 s 8 61 00 00 00 11 01 00 00 
00:00:11:3233 Rx 2 0x210 s 8 C3 00 00 00 10 02 00 01 
00:00:11:3233 Rx 1 0x110 s 8 C3 00 00 00 10 01 00 00 
00:00:11:3243 Rx 2 0x210 s 8 C4 00 00 00 10 02 00 01 
00:00:11:3243 Rx 1 0x110 s 8 C4 00 00 00 10 01 00 00 
00:00:11:3245 Rx 1 0x111 s 8 62 00 00 00 11 01 00 00 
00:00:11:3245 Rx 2 0x211 s 8 62 00 00 00 11 02 00 01 
00:00:11:3253 Rx 1 0x110 s 8 C5 00 00 00 10 01 00 00 
00:00:11:3253 Rx 2 0x210 s 8 C5 00 00 00 10 02 00 01 
00:00:11:3255 Tx 2 0x18FF20EF x 8 00 00 00 00 00 00 00 00 
00:00:11:3255 Tx 1 0x54F x 8 00 00 00 00 00 00 00 00 
00:00:11:3256 Tx 1 0x28C x 8 00 00 00 00 00 00 00 00 
00:00:11:3263 Rx 2 0x210 s 8 C6 00 00 00 10 02 00 01 
00:00:11:3263 Rx 1 0x110 s 8 C6 00 00 00 10 01 00 00 
00:00:11:3265 Rx 2 0x211 s 8 63 00 00 00 11 02 00 01 
00:00:11:3265 Rx 1 0x111 s 8 63 00 00 00 11 01 00 00 
00:00:11:3273 Rx 2 0x210 s 8 C7 00 00 00 10 02 00 01 
00:00:11:3273 Rx 1 0x110 s 8 C7 00 00 00 10 01 00 00 
00:00:11:3283 Rx 1 0x100 s 8 14 00 00 00 00 01 01 00 
00:00:11:3283 Rx 2 0x200 s 8 14 00 00 00 00 02 01 01 
00:00:11:3285 Rx 2 0x201 s 8 0A 00 00 00 01 02 01 01 
00:00:11:3285 Rx 1 0x101 s 8 0A 00 00 00 01 01 01 00 
00:00:11:3286 Rx 1 0x110 s 8 C8 00 00 00 10 01 00 00 
00:00:11:3286 Rx 2 0x210 s 8 C8 00 00 00 10 02 00 01 
00:00:11:3287 Rx 2 0x211 s 8 64 00 00 00 11 02 00 01 
00:00:11:3287 Rx 1 0x111 s 8 64 00 00 00 11 01 00 00 
00:00:11:3293 Rx 2 0x210 s 8 C9 00 00 00 10 02 00 01 
00:00:11:3293 Rx 1 0x110 s 8 C9 00 00 00 10 01 00 00 
00:00:11:3303 Rx 1 0x110 s 8 CA 00 00 00 10 01 00 00 
00:00:11:3303 Rx 2 0x210 s 8 CA 00 00 00 10 02 00 01 
00:00:11:3305 Rx 2 0x211 s 8 65 00 00 00 11 02 00 01 
00:00:11:3305 Rx 1 0x111 s 8 65 00 00 00 11 01 00 00 
00:00:11:3313 Rx 2 0x210 s 8 CB 00 00 00 10 02 00 01 
00:00:11:3313 Rx 1 0x110 s 8 CB 00 00 00 10 01 00 00 
00:00:11:3323 Rx 2 0x210 s 8 CC 00 00 00 10 02 00 01 
00:00:11:3323 Rx 1 0x110 s 8 CC 00 00 00 10 01 00 00 
00:00:11:3325 Rx 2 0x211 s 8 66 00 00 00 11 02 00 01 
00:00:11:3325 Rx 1 0x111 s 8 66 00 00 00 11 01 00 00 
00:00:11:3333 Rx 1 0x110 s 8 CD 00 00 00 10 01 00 00 
00:00:11:3333 Rx 2 0x210 s 8 CD 00 00 00 10 02 00 01 
00:00:11:3343 Rx 2 0x210 s 8 CE 00 00 00 10 02 00 01 
00:00:11:3343 Rx 1 0x110 s 8 CE 00 00 00 10 01 00 00 
00:00:11:3345 Rx 1 0x111 s 8 67 00 00 00 11 01 00 00 
00:00:11:3345 Rx 2 0x211 s 8 67 00 00 00 11 02 00 01 
00:00:11:3353 Rx 1 0x110 s 8 CF 00 00 00 10 01 00 00 
00:00:11:3353 Rx 2 0x210 s 8 CF 00 00 00 10 02 00 01 
00:00:11:3363 Rx 2 0x210 s 8 D0 00 00 00 10 02 00 01 
00:00:11:3363 Rx 1 0x110 s 8 D0 00 00 00 10 01 00 00 
00:00:11:3365 Rx 2 0x211 s 8 68 00 00 00 11 02 00 01 
00:00:11:3365 Rx 1 0x111 s 8 68 00 00 00 11 01 00 00 
00:00:11:3373 Rx 1 0x110 s 8 D1 00 00 00 10 01 00 00 
00:00:11:3373 Rx 2 0x210 s 8 D1 00 00 00 10 02 00 01 
00:00:11:3383 Rx 2 0x200 s 8 15 00 00 00 00 02 01 01 
00:00:11:3383 Rx 1 0x100 s 8 15 00 00 00 00 01 01 00 
00:00:11:3385 Rx 1 0x110 s 8 D2 00 00 00 10 01 00 00 
00:00:11:3385 Rx 2 0x210 s 8 D2 00 00 00 10 02 00 01 
00:00:11:3386 Rx 2 0x211 s 8 69 00 00 00 11 02 00 01 
00:00:11:3386 Rx 1 0x111 s 8 69 00 00 00 11 01 00 00 
00:00:11:3393 Rx 1 0x110 s 8 D3 00 00 00 10 01 00 00 
00:00:11:3393 Rx 2 0x210 s 8 D3 00 00 00 10 02 00 01 
00:00:11:3403 Tx 1 0x54F x 8 00 00 00 00 00 00 00 00 
00:00:11:3403 Rx 2 0x210 s 8 D4 00 00 00 10 02 00 01 
00:00:11:3405 Rx 2 0x211 s 8 6A 00 00 00 11 02 00 01 
00:00:11:3405 Rx 1 0x110 s 8 D4 00 00 00 10 01 00 00 
00:00:11:3406 Tx 2 0x18FF20EF x 8 00 00 00 00 00 00 00 00 
00:00:11:3406 Tx 1 0x28C x 8 00 00 00 00 00 00 00 00 
00:00:11:3407 Rx 1 0x111 s 8 6A 00 00 00 11 01 00 00 
00:00:11:3413 Rx 2 0x210 s 8 D5 00 00 00 10 02 00 01 
00:00:11:3413 Rx 1 0x110 s 8 D5 00 00 00 10 01 00 00 
00:00:11:3423 Rx 1 0x110 s 8 D6 00 00 00 10 01 00 00 
00:00:11:3423 Rx 2 0x210 s 8 D6 00 00 00 10 02 00 01 
00:00:11:3425 Rx 2 0x211 s 8 6B 00 00 00 11 02 00 01 
00:00:11:3425 Rx 1 0x111 s 8 6B 00 00 00 11 01 00 00 
00:00:11:3433 Rx 2 0x210 s 8 D7 00 00 00 10 02 00 01 
00:00:11:3433 Rx 1 0x110 s 8 D7 00 00 00 10 01 00 00 
00:00:11:3443 Rx 2 0x210 s 8 D8 00 00 00 10 02 00 01 
00:00:11:3443 Rx 1 0x110 s 8 D8 00 00 00 10 01 00 00 
00:00:11:3445 Rx 1 0x111 s 8 6C 00 00 00 11 01 00 00 
00:00:11:3445 Rx 2 0x211 s 8 6C 00 00 00 11 02 00 01 
00:00:11:3453 Rx 1 0x110 s 8 D9 00 00 00 10 01 00 00 
00:00:11:3453 Rx 2 0x210 s 8 D9 00 00 00 10 02 00 01 
00:00:11:3463 Rx 1 0x110 s 8 DA 00 00 00 10 01 00 00 
00:00:11:3463 Rx 2 0x210 s 8 DA 00 00 00 10 02 00 01 
00:00:11:3465 Rx 2 0x211 s 8 6D 00 00 00 11 02 00 01 
00:00:11:3465 Rx 1 0x111 s 8 6D 00 00 00 11 01 00 00 
00:00:11:3473 Rx 1 0x110 s 8 DB 00 00 00 10 01 00 00 
00:00:11:3473 Rx 2 0x210 s 8 DB 00 00 00 10 02 00 01 
00:00:11:3483 Rx 2 0x200 s 8 16 00 00 00 00 02 01 01 
00:00:11:3483 Rx 1 0x100 s 8 16 00 00 00 00 01 01 00 
00:00:11:3485 Rx 1 0x101 s 8 0B 00 00 00 01 01 01 00 
00:00:11:3485 Rx 2 0x201 s 8 0B 00 00 00 01 02 01 01 
00:00:11:3486 Rx 2 0x210 s 8 DC 00 00 00 10 02 00 01 
00:00:11:3486 Rx 1 0x110 s 8 DC 00 00 00 10 01 00 00 
00:00:11:3487 Rx 1 0x111 s 8 6E 00 00 00 11 01 00 00 
00:00:11:3487 Rx 2 0x211 s 8 6E 00 00 00 11 02 00 01 
00:00:11:3493 Rx 1 0x110 s 8 DD 00 00 00 10 01 00 00 
00:00:11:3493 Rx 2 0x210 s 8 DD 00 00 00 10 02 00 01 
00:00:11:3503 Rx 2 0x210 s 8 DE 00 00 00 10 02 00 01 
00:00:11:3503 Rx 1 0x110 s 8 DE 00 00 00 10 01 00 00 
00:00:11:3505 Rx 1 0x111 s 8 6F 00 00 00 11 01 00 00 
00:00:11:3505 Rx 2 0x211 s 8 6F 00 00 00 11 02 00 01 
00:00:11:3513 Rx 1 0x110 s 8 DF 00 00 00 10 01 00 00 
00:00:11:3513 Rx 2 0x210 s 8 DF 00 00 00 10 02 00 01 
00:00:11:3523 Rx 2 0x210 s 8 E0 00 00 00 10 02 00 01 
00:00:11:3523 Rx 1 0x110 s 8 E0 00 00 00 10 01 00 00 
00:00:11:3525 Rx 1 0x111 s 8 70 00 00 00 11 01 00 00 
00:00:11:3525 Rx 2 0x211 s 8 70 00 00 00 11 02 00 01 
00:00:11:3533 Rx 2 0x210 s 8 E1 00 00 00 10 02 00 01 
00:00:11:3533 Rx 1 0x110 s 8 E1 00 00 00 10 01 00 00 
00:00:11:3543 Rx 1 0x110 s 8 E2 00 00 00 10 01 00 00 
00:00:11:3543 Rx 2 0x210 s 8 E2 00 00 00 10 02 00 01 
00:00:11:3545 Rx 2 0x211 s 8 71 00 00 00 11 02 00 01 
00:00:11:3545 Rx 1 0x111 s 8 71 00 00 00 11 01 00 00 
00:00:11:3553 Rx 2 0x210 s 8 E3 00 00 00 10 02 00 01 
00:00:11:3553 Rx 1 0x110 s 8 E3 00 00 00 10 01 00 00 
00:00:11:3563 Rx 2 0x210 s 8 E4 00 00 00 10 02 00 01 
00:00:11:3563 Rx 1 0x110 s 8 E4 00 00 00 10 01 00 00 
00:00:11:3565 Rx 1 0x111 s 8 72 00 00 00 11 01 00 00 
00:00:11:3565 Rx 2 0x211 s 8 72 00 00 00 11 02 00 01 
00:00:11:3573 Tx 1 0x54F x 8 00 00 00 00 00 00 00 00 
00:00:11:3573 Rx 2 0x210 s 8 E5 00 00 00 10 02 00 01 
00:00:11:3574 Rx 1 0x110 s 8 E5 00 00 00 10 01 00 00 
00:00:11:3575 Tx 2 0x18FF20EF x 8 00 00 00 00 00 00 00 00 
00:00:11:3576 Tx 1 0x28C x 8 00 00 00 00 00 00 00 00 
00:00:11:3583 Rx 1 0x100 s 8 17 00 00 00 00 01 01 00 
00:00:11:3583 Rx 2 0x200 s 8 17 00 00 00 00 02 01 01 
00:00:11:3585 Rx 2 0x210 s 8 E6 00 00 00 10 02 00 01 
00:00:11:3585 Rx 1 0x110 s 8 E6 00 00 00 10 01 00 00 
00:00:11:3586 Rx 1 0x111 s 8 73 00 00 00 11 01 00 00 
00:00:11:3586 Rx 2 0x211 s 8 73 00 00 00 11 02 00 01 
00:00:11:3593 Rx 2 0x210 s 8 E7 00 00 00 10 02 00 01 
00:00:11:3593 Rx 1 0x110 s 8 E7 00 00 00 10 01 00 00 
00:00:11:3603 Rx 1 0x110 s 8 E8 00 00 00 10 01 00 00 
00:00:11:3603 Rx 2 0x210 s 8 E8 00 00 00 10 02 00 01 
00:00:11:3605 Rx 2 0x211 s 8 74 00 00 00 11 02 00 01 
00:00:11:3605 Rx 1 0x111 s 8 74 00 00 00 11 01 00 00 
00:00:11:3613 Rx 2 0x210 s 8 E9 00 00 00 10 02 00 01 
00:00:11:3613 Rx 1 0x110 s 8 E9 00 00 00 10 01 00 00 
00:00:11:3623 Rx 1 0x110 s 8 EA 00 00 00 10 01 00 00 
00:00:11:3623 Rx 2 0x210 s 8 EA 00 00 00 10 02 00 01 
00:00:11:3625 Rx 2 0x211 s 8 75 00 00 00 11 02 00 01 
00:00:11:3625 Rx 1 0x111 s 8 75 00 00 00 11 01 00 00 
00:00:11:3633 Rx 2 0x210 s 8 EB 00 00 00 10 02 00 01 
00:00:11:3633 Rx 1 0x110 s 8 EB 00 00 00 10 01 00 00 
00:00:11:3643 Rx 1 0x110 s 8 EC 00 00 00 10 01 00 00 
00:00:11:3643 Rx 2 0x210 s 8 EC 00 00 00 10 02 00 01 
00:00:11:3645 Rx 2 0x211 s 8 76 00 00 00 11 02 00 01 
00:00:11:3645 Rx 1 0x111 s 8 76 00 00 00 11 01 00 00 
00:00:11:3653 Rx 1 0x110 s 8 ED 00 00 00 10 01 00 00 
00:00:11:3653 Rx 2 0x210 s 8 ED 00 00 00 10 02 00 01 
00:00:11:3663 Rx 1 0x110 s 8 EE 00 00 00 10 01 00 00 
00:00:11:3663 Rx 2 0x210 s 8 EE 00 00 00 10 02 00 01 
00:00:11:3665 Rx 2 0x211 s 8 77 00 00 00 11 02 00 01 
00:00:11:3665 Rx 1 0x111 s 8 77 00 00 00 11 01 00 00 
00:00:11:3673 Rx 2 0x210 s 8 EF 00 00 00 10 02 00 01 
00:00:11:3673 Rx 1 0x110 s 8 EF 00 00 00 10 01 00 00 
00:00:11:3683 Rx 2 0x200 s 8 18 00 00 00 00 02 01 01 
00:00:11:3683 Rx 1 0x100 s 8 18 00 00 00 00 01 01 00 
00:00:11:3685 Rx 2 0x201 s 8 0C 00 00 00 01 02 01 01 
00:00:11:3685 Rx 1 0x101 s 8 0C 00 00 00 01 01 01 00 
00:00:11:3686 Rx 2 0x210 s 8 F0 00 00 00 10 02 00 01 
00:00:11:3686 Rx 1 0x110 s 8 F0 00 00 00 10 01 00 00 
00:00:11:3687 Rx 1 0x111 s 8 78 00 00 00 11 01 00 00 
00:00:11:3687 Rx 2 0x211 s 8 78 00 00 00 11 02 00 01 
00:00:11:3693 Rx 2 0x210 s 8 F1 00 00 00 10 02 00 01 
00:00:11:3693 Rx 1 0x110 s 8 F1 00 00 00 10 01 00 00 
00:00:11:3703 Rx 2 0x210 s 8 F2 00 00 00 10 02 00 01 
00:00:11:3703 Rx 1 0x110 s 8 F2 00 00 00 10 01 00 00 
00:00:11:3705 Rx 1 0x111 s 8 79 00 00 00 11 01 00 00 
00:00:11:3705 Rx 2 0x211 s 8 79 00 00 00 11 02 00 01 
00:00:11:3713 Rx 2 0x210 s 8 F3 00 00 00 10 02 00 01 
00:00:11:3713 Rx 1 0x110 s 8 F3 00 00 00 10 01 00 00 
00:00:11:3715 Tx 2 0x18FF20EF x 8 00 00 00 00 00 00 00 00 
00:00:11:3715 Tx 1 0x54F x 8 00 00 00 00 00 00 00 00 
00:00:11:3716 Tx 1 0x28C x 8 00 00 00 00 00 00 00 00 
00:00:11:3723 Rx 2 0x210 s 8 F4 00 00 00 10 02 00 01 
00:00:11:3723 Rx 1 0x110 s 8 F4 00 00 00 10 01 00 00 
00:00:11:3725 Rx 2 0x211 s 8 7A 00 00 00 11 02 00 01 
00:00:11:3725 Rx 1 0x111 s 8 7A 00 00 00 11 01 00 00 
00:00:11:3733 Rx 1 0x110 s 8 F5 00 00 00 10 01 00 00 
00:00:11:3733 Rx 2 0x210 s 8 F5 00 00 00 10 02 00 01 
00:00:11:3743 Rx 1 0x110 s 8 F6 00 00 00 10 01 00 00 
00:00:11:3743 Rx 2 0x210 s 8 F6 00 00 00 10 02 00 01 
00:00:11:3745 Rx 2 0x211 s 8 7B 00 00 00 11 02 00 01 
00:00:11:3745 Rx 1 0x111 s 8 7B 00 00 00 11 01 00 00 
00:00:11:3753 Rx 1 0x110 s 8 F7 00 00 00 10 01 00 00 
00:00:11:3753 Rx 2 0x210 s 8 F7 00 00 00 10 02 00 01 
00:00:11:3763 Rx 1 0x110 s 8 F8 00 00 00 10 01 00 00 
00:00:11:3763 Rx 2 0x210 s 8 F8 00 00 00 10 02 00 01 
00:00:11:3765 Rx 2 0x211 s 8 7C 00 00 00 11 02 00 01 
00:00:11:3765 Rx 1 0x111 s 8 7C 00 00 00 11 01 00 00 
00:00:11:3773 Rx 2 0x210 s 8 F9 00 00 00 10 02 00 01 
00:00:11:3773 Rx 1 0x110 s 8 F9 00 00 00 10 01 00 00 
00:00:11:3783 Rx 1 0x100 s 8 19 00 00 00 00 01 01 00 
00:00:11:3783 Rx 2 0x200 s 8 19 00 00 00 00 02 01 01 
00:00:11:3785 Rx 2 0x210 s 8 FA 00 00 00 10 02 00 01 
00:00:11:3785 Rx 1 0x110 s 8 FA 00 00 00 10 01 00 00 
00:00:11:3786 Rx 1 0x111 s 8 7D 00 00 00 11 01 00 00 
00:00:11:3786 Rx 2 0x211 s 8 7D 00 00 00 11 02 00 01 
00:00:11:3793 Rx 2 0x210 s 8 FB 00 00 00 10 02 00 01 
00:00:11:3793 Rx 1 0x110 s 8 FB 00 00 00 10 01 00 00 
00:00:11:3803 Rx 1 0x110 s 8 FC 00 00 00 10 01 00 00 
00:00:11:3803 Rx 2 0x210 s 8 FC 00 00 00 10 02 00 01 
00:00:11:3805 Rx 2 0x211 s 8 7E 00 00 00 11 02 00 01 
00:00:11:3805 Rx 1 0x111 s 8 7E 00 00 00 11 01 00 00 
00:00:11:3813 Rx 2 0x210 s 8 FD 00 00 00 10 02 00 01 
00:00:11:3813 Rx 1 0x110 s 8 FD 00 00 00 10 01 00 00 
00:00:11:3823 Rx 1 0x110 s 8 FE 00 00 00 10 01 00 00 
00:00:11:3823 Rx 2 0x210 s 8 FE 00 00 00 10 02 00 01 
00:00:11:3825 Rx 2 0x211 s 8 7F 00 00 00 11 02 00 01 
00:00:11:3825 Rx 1 0x111 s 8 7F 00 00 00 11 01 00 00 
00:00:11:3833 Rx 2 0x210 s 8 FF 00 00 00 10 02 00 01 
00:00:11:3833 Rx 1 0x110 s 8 FF 00 00 00 10 01 00 00 
00:00:11:3843 Rx 2 0x210 s 8 00 01 00 00 10 02 00 01 
00:00:11:3843 Rx 1 0x110 s 8 00 01 00 00 10 01 00 00 
00:00:11:3845 Rx 1 0x111 s 8 80 00 00 00 11 01 00 00 
00:00:11:3845 Rx 2 0x211 s 8 80 00 00 00 11 02 00 01 
00:00:11:3853 Rx 1 0x110 s 8 01 01 00 00 10 01 00 00 
00:00:11:3853 Rx 2 0x210 s 8 01 01 00 00 10 02 00 01 
00:00:11:3863 Rx 2 0x210 s 8 02 01 00 00 10 02 00 01 
00:00:11:3863 Rx 1 0x110 s 8 02 01 00 00 10 01 00 00 
00:00:11:3865 Rx 2 0x211 s 8 81 00 00 00 11 02 00 01 
00:00:11:3865 Tx 1 0x54F x 8 00 00 00 00 00 00 00 00 
00:00:11:3866 Tx 2 0x18FF20EF x 8 00 00 00 00 00 00 00 00 
00:00:11:3866 Rx 1 0x111 s 8 81 00 00 00 11 01 00 00 
00:00:11:3868 Tx 1 0x28C x 8 00 00 00 00 00 00 00 00 
00:00:11:3873 Rx 2 0x210 s 8 03 01 00 00 10 02 00 01 
00:00:11:3873 Rx 1 0x110 s 8 03 01 00 00 10 01 00 00 
00:00:11:3883 Rx 1 0x100 s 8 1A 00 00 00 00 01 01 00 
00:00:11:3883 Rx 2 0x200 s 8 1A 00 00 00 00 02 01 01 
00:00:11:3885 Rx 2 0x201 s 8 0D 00 00 00 01 02 01 01 
00:00:11:3885 Rx 1 0x101 s 8 0D 00 00 00 01 01 01 00 
00:00:11:3886 Rx 1 0x110 s 8 04 01 00 00 10 01 00 00 
00:00:11:3886 Rx 2 0x210 s 8 04 01 00 00 10 02 00 01 
00:00:11:3887 Rx 2 0x211 s 8 82 00 00 00 11 02 00 01 
00:00:11:3887 Rx 1 0x111 s 8 82 00 00 00 11 01 00 00 
00:00:11:3893 Rx 2 0x210 s 8 05 01 00 00 10 02 00 01 
00:00:11:3893 Rx 1 0x110 s 8 05 01 00 00 10 01 00 00 
00:00:11:3903 Rx 1 0x110 s 8 06 01 00 00 10 01 00 00 
00:00:11:3903 Rx 2 0x210 s 8 06 01 00 00 10 02 00 01 
00:00:11:3905 Rx 2 0x211 s 8 83 00 00 00 11 02 00 01 
00:00:11:3905 Rx 1 0x111 s 8 83 00 00 00 11 01 00 00 
00:00:11:3913 Rx 2 0x210 s 8 07 01 00 00 10 02 00 01 
00:00:11:3913 Rx 1 0x110 s 8 07 01 00 00 10 01 00 00 
00:00:11:3923 Rx 1 0x110 s 8 08 01 00 00 10 01 00 00 
00:00:11:3923 Rx 2 0x210 s 8 08 01 00 00 10 02 00 01 
00:00:11:3925 Rx 2 0x211 s 8 84 00 00 00 11 02 00 01 
00:00:11:3925 Rx 1 0x111 s 8 84 00 00 00 11 01 00 00 
00:00:11:3933 Rx 1 0x110 s 8 09 01 00 00 10 01 00 00 
00:00:11:3933 Rx 2 0x210 s 8 09 01 00 00 10 02 00 01 
00:00:11:3943 Rx 1 0x110 s 8 0A 01 00 00 10 01 00 00 
00:00:11:3943 Rx 2 0x210 s 8 0A 01 00 00 10 02 00 01 
00:00:11:3945 Rx 2 0x211 s 8 85 00 00 00 11 02 00 01 
00:00:11:3945 Rx 1 0x111 s 8 85 00 00 00 11 01 00 00 
00:00:11:3953 Rx 1 0x110 s 8 0B 01 00 00 10 01 00 00 
00:00:11:3953 Rx 2 0x210 s 8 0B 01 00 00 10 02 00 01 
00:00:11:3963 Rx 2 0x210 s 8 0C 01 00 00 10 02 00 01 
00:00:11:3963 Rx 1 0x110 s 8 0C 01 00 00 10 01 00 00 
00:00:11:3965 Rx 2 0x211 s 8 86 00 00 00 11 02 00 01 
00:00:11:3965 Rx 1 0x111 s 8 86 00 00 00 11 01 00 00 
00:00:11:3973 Rx 1 0x110 s 8 0D 01 00 00 10 01 00 00 
00:00:11:3973 Rx 2 0x210 s 8 0D 01 00 00 10 02 00 01 
00:00:11:3983 Rx 2 0x200 s 8 1B 00 00 00 00 02 01 01 
00:00:11:3983 Rx 1 0x100 s 8 1B 00 00 00 00 01 01 00 
00:00:11:3985 Rx 1 0x110 s 8 0E 01 00 00 10 01 00 00 
00:00:11:3985 Rx 2 0x210 s 8 0E 01 00 00 10 02 00 01 
00:00:11:3986 Rx 2 0x211 s 8 87 00 00 00 11 02 00 01 
00:00:11:3986 Rx 1 0x111 s 8 87 00 00 00 11 01 00 00 
00:00:11:3993 Rx 2 0x210 s 8 0F 01 00 00 10 02 00 01 
00:00:11:3993 Rx 1 0x110 s 8 0F 01 00 00 10 01 00 00 
00:00:11:4003 Rx 2 0x210 s 8 10 01 00 00 10 02 00 01 
00:00:11:4003 Rx 1 0x110 s 8 10 01 00 00 10 01 00 00 
00:00:11:4005 Rx 2 0x211 s 8 88 00 00 00 11 02 00 01 
00:00:11:4005 Rx 1 0x111 s 8 88 00 00 00 11 01 00 00 
00:00:11:4013 Rx 1 0x110 s 8 11 01 00 00 10 01 00 00 
00:00:11:4013 Rx 2 0x210 s 8 11 01 00 00 10 02 00 01 
00:00:11:4023 Rx 2 0x210 s 8 12 01 00 00 10 02 00 01 
00:00:11:4023 Rx 1 0x110 s 8 12 01 00 00 10 01 00 00 
00:00:11:4025 Rx 2 0x211 s 8 89 00 00 00 11 02 00 01 
00:00:11:4025 Rx 1 0x111 s 8 89 00 00 00 11 01 00 00 
00:00:11:4033 Rx 2 0x210 s 8 13 01 00 00 10 02 00 01 
00:00:11:4033 Rx 1 0x110 s 8 13 01 00 00 10 01 00 00 
00:00:11:4035 Tx 1 0x54F x 8 00 00 00 00 00 00 00 00 
00:00:11:4035 Tx 2 0x18FF20EF x 8 00 00 00 00 00 00 00 00 
00:00:11:4036 Tx 1 0x28C x 8 00 00 00 00 00 00 00 00 
00:00:11:4043 Rx 2 0x210 s 8 14 01 00 00 10 02 00 01 
00:00:11:4043 Rx 1 0x110 s 8 14 01 00 00 10 01 00 00 
00:00:11:4045 Rx 1 0x111 s 8 8A 00 00 00 11 01 00 00 
00:00:11:4045 Rx 2 0x211 s 8 8A 00 00 00 11 02 00 01 
00:00:11:4053 Rx 1 0x110 s 8 15 01 00 00 10 01 00 00 
00:00:11:4053 Rx 2 0x210 s 8 15 01 00 00 10 02 00 01 
00:00:11:4063 Rx 1 0x110 s 8 16 01 00 00 10 01 00 00 
00:00:11:4063 Rx 2 0x210 s 8 16 01 00 00 10 02 00 01 
00:00:11:4065 Rx 1 0x111 s 8 8B 00 00 00 11 01 00 00 
00:00:11:4065 Rx 2 0x211 s 8 8B 00 00 00 11 02 00 01 
00:00:11:4073 Rx 2 0x210 s 8 17 01 00 00 10 02 00 01 
00:00:11:4073 Rx 1 0x110 s 8 17 01 00 00 10 01 00 00 
00:00:11:4083 Rx 2 0x200 s 8 1C 00 00 00 00 02 01 01 
00:00:11:4083 Rx 1 0x100 s 8 1C 00 00 00 00 01 01 00 
00:00:11:4085 Rx 1 0x101 s 8 0E 00 00 00 01 01 01 00 
00:00:11:4085 Rx 2 0x201 s 8 0E 00 00 00 01 02 01 01 
00:00:11:4086 Rx 2 0x210 s 8 18 01 00 00 10 02 00 01 
00:00:11:4086 Rx 1 0x110 s 8 18 01 00 00 10 01 00 00 
00:00:11:4087 Rx 1 0x111 s 8 8C 00 00 00 11 01 00 00 
00:00:11:4087 Rx 2 0x211 s 8 8C 00 00 00 11 02 00 01 
00:00:11:4093 Rx 1 0x110 s 8 19 01 00 00 10 01 00 00 
00:00:11:4093 Rx 2 0x210 s 8 19 01 00 00 10 02 00 01 
00:00:11:4103 Rx 2 0x210 s 8 1A 01 00 00 10 02 00 01 
00:00:11:4103 Rx 1 0x110 s 8 1A 01 00 00 10 01 00 00 
00:00:11:4105 Rx 1 0x111 s 8 8D 00 00 00 11 01 00 00 
00:00:11:4105 Rx 2 0x211 s 8 8D 00 00 00 11 02 00 01 
00:00:11:4113 Rx 1 0x110 s 8 1B 01 00 00 10 01 00 00 
00:00:11:4113 Rx 2 0x210 s 8 1B 01 00 00 10 02 00 01 
00:00:11:4123 Rx 1 0x110 s 8 1C 01 00 00 10 01 00 00 
00:00:11:4123 Rx 2 0x210 s 8 1C 01 00 00 10 02 00 01 
00:00:11:4125 Rx 2 0x211 s 8 8E 00 00 00 11 02 00 01 
00:00:11:4125 Rx 1 0x111 s 8 8E 00 00 00 11 01 00 00 
00:00:11:4133 Rx 1 0x110 s 8 1D 01 00 00 10 01 00 00 
00:00:11:4133 Rx 2 0x210 s 8 1D 01 00 00 10 02 00 01 
00:00:11:4143 Rx 1 0x110 s 8 1E 01 00 00 10 01 00 00 
00:00:11:4143 Rx 2 0x210 s 8 1E 01 00 00 10 02 00 01 
00:00:11:4145 Rx 2 0x211 s 8 8F 00 00 00 11 02 00 01 
00:00:11:4145 Rx 1 0x111 s 8 8F 00 00 00 11 01 00 00 
00:00:11:4153 Rx 1 0x110 s 8 1F 01 00 00 10 01 00 00 
00:00:11:4153 Rx 2 0x210 s 8 1F 01 00 00 10 02 00 01 
00:00:11:4163 Rx 2 0x210 s 8 20 01 00 00 10 02 00 01 
00:00:11:4163 Rx 1 0x110 s 8 20 01 00 00 10 01 00 00 
00:00:11:4165 Rx 1 0x111 s 8 90 00 00 00 11 01 00 00 
00:00:11:4165 Rx 2 0x211 s 8 90 00 00 00 11 02 00 01 
00:00:11:4173 Rx 2 0x210 s 8 21 01 00 00 10 02 00 01 
00:00:11:4173 Rx 1 0x110 s 8 21 01 00 00 10 01 00 00 
00:00:11:4183 Rx 1 0x100 s 8 1D 00 00 00 00 01 01 00 
00:00:11:4183 Rx 2 0x200 s 8 1D 00 00 00 00 02 01 01 
00:00:11:4185 Rx 2 0x210 s 8 22 01 00 00 10 02 00 01 
00:00:11:4185 Tx 1 0x54F x 8 00 00 00 00 00 00 00 00 
00:00:11:4186 Rx 2 0x211 s 8 91 00 00 00 11 02 00 01 
00:00:11:4186 Rx 1 0x110 s 8 22 01 00 00 10 01 00 00 
00:00:11:4187 Tx 2 0x18FF20EF x 8 00 00 00 00 00 00 00 00 
00:00:11:4188 Tx 1 0x28C x 8 00 00 00 00 00 00 00 00 
00:00:11:4189 Rx 1 0x111 s 8 91 00 00 00 11 01 00 00 
00:00:11:4193 Rx 2 0x210 s 8 23 01 00 00 10 02 00 01 
00:00:11:4193 Rx 1 0x110 s 8 23 01 00 00 10 01 00 00 
00:00:11:4203 Rx 1 0x110 s 8 24 01 00 00 10 01 00 00 
00:00:11:4203 Rx 2 0x210 s 8 24 01 00 00 10 02 00 01 
00:00:11:4205 Rx 2 0x211 s 8 92 00 00 00 11 02 00 01 
00:00:11:4205 Rx 1 0x111 s 8 92 00 00 00 11 01 00 00 
00:00:11:4214 Rx 2 0x210 s 8 25 01 00 00 10 02 00 01 
00:00:11:4213 Rx 1 0x110 s 8 25 01 00 00 10 01 00 00 
00:00:11:4223 Rx 1 0x110 s 8 26 01 00 00 10 01 00 00 
00:00:11:4224 Rx 2 0x210 s 8 26 01 00 00 10 02 00 01 
00:00:11:4225 Rx 2 0x211 s 8 93 00 00 00 11 02 00 01 
00:00:11:4225 Rx 1 0x111 s 8 93 00 00 00 11 01 00 00 
00:00:11:4233 Rx 2 0x210 s 8 27 01 00 00 10 02 00 01 
00:00:11:4233 Rx 1 0x110 s 8 27 01 00 00 10 01 00 00 
00:00:11:4243 Rx 2 0x210 s 8 28 01 00 00 10 02 00 01 
00:00:11:4243 Rx 1 0x110 s 8 28 01 00 00 10 01 00 00 
00:00:11:4245 Rx 2 0x211 s 8 94 00 00 00 11 02 00 01 
00:00:11:4245 Rx 1 0x111 s 8 94 00 00 00 11 01 00 00 
00:00:11:4253 Rx 1 0x110 s 8 29 01 00 00 10 01 00 00 
00:00:11:4253 Rx 2 0x210 s 8 29 01 00 00 10 02 00 01 
00:00:11:4263 Rx 1 0x110 s 8 2A 01 00 00 10 01 00 00 
00:00:11:4263 Rx 2 0x210 s 8 2A 01 00 00 10 02 00 01 
00:00:11:4265 Rx 2 0x211 s 8 95 00 00 00 11 02 00 01 
00:00:11:4265 Rx 1 0x111 s 8 95 00 00 00 11 01 00 00 
00:00:11:4273 Rx 2 0x210 s 8 2B 01 00 00 10 02 00 01 
00:00:11:4273 Rx 1 0x110 s 8 2B 01 00 00 10 01 00 00 
00:00:11:4283 Rx 2 0x200 s 8 1E 00 00 00 00 02 01 01 
00:00:11:4283 Rx 1 0x100 s 8 1E 00 00 00 00 01 01 00 
00:00:11:4285 Rx 1 0x101 s 8 0F 00 00 00 01 01 01 00 
00:00:11:4285 Rx 2 0x201 s 8 0F 00 00 00 01 02 01 01 
00:00:11:4286 Rx 2 0x210 s 8 2C 01 00 00 10 02 00 01 
00:00:11:4286 Rx 1 0x110 s 8 2C 01 00 00 10 01 00 00 
00:00:11:4287 Rx 1 0x111 s 8 96 00 00 00 11 01 00 00 
00:00:11:4287 Rx 2 0x211 s 8 96 00 00 00 11 02 00 01 
00:00:11:4293 Rx 1 0x110 s 8 2D 01 00 00 10 01 00 00 
00:00:11:4293 Rx 2 0x210 s 8 2D 01 00 00 10 02 00 01 
00:00:11:4303 Rx 2 0x210 s 8 2E 01 00 00 10 02 00 01 
00:00:11:4303 Rx 1 0x110 s 8 2E 01 00 00 10 01 00 00 
00:00:11:4305 Rx 1 0x111 s 8 97 00 00 00 11 01 00 00 
00:00:11:4305 Rx 2 0x211 s 8 97 00 00 00 11 02 00 01 
00:00:11:4313 Rx 1 0x110 s 8 2F 01 00 00 10 01 00 00 
00:00:11:4313 Rx 2 0x210 s 8 2F 01 00 00 10 02 00 01 
00:00:11:4323 Rx 2 0x210 s 8 30 01 00 00 10 02 00 01 
00:00:11:4323 Rx 1 0x110 s 8 30 01 00 00 10 01 00 00 
00:00:11:4325 Rx 1 0x111 s 8 98 00 00 00 11 01 00 00 
00:00:11:4325 Rx 2 0x211 s 8 98 00 00 00 11 02 00 01 
00:00:11:4333 Rx 2 0x210 s 8 31 01 00 00 10 02 00 01 
00:00:11:4333 Rx 1 0x110 s 8 31 01 00 00 10 01 00 00 
00:00:11:4343 Rx 2 0x210 s 8 32 01 00 00 10 02 00 01 
00:00:11:4343 Rx 1 0x110 s 8 32 01 00 00 10 01 00 00 
00:00:11:4345 Rx 1 0x111 s 8 99 00 00 00 11 01 00 00 
00:00:11:4345 Rx 2 0x211 s 8 99 00 00 00 11 02 00 01 
00:00:11:4353 Rx 2 0x210 s 8 33 01 00 00 10 02 00 01 
00:00:11:4353 Rx 1 0x110 s 8 33 01 00 00 10 01 00 00 
00:00:11:4363 Rx 2 0x210 s 8 34 01 00 00 10 02 00 01 
00:00:11:4363 Rx 1 0x110 s 8 34 01 00 00 10 01 00 00 
00:00:11:4365 Rx 2 0x211 s 8 9A 00 00 00 11 02 00 01 
00:00:11:4365 Tx 1 0x54F x 8 00 00 00 00 00 00 00 00 
00:00:11:4366 Tx 2 0x18FF20EF x 8 00 00 00 00 00 00 00 00 
00:00:11:4366 Rx 1 0x111 s 8 9A 00 00 00 11 01 00 00 
00:00:11:4368 Tx 1 0x28C x 8 00 00 00 00 00 00 00 00 
00:00:11:4373 Rx 2 0x210 s 8 35 01 00 00 10 02 00 01 
00:00:11:4373 Rx 1 0x110 s 8 35 01 00 00 10 01 00 00 
00:00:11:4383 Rx 2 0x200 s 8 1F 00 00 00 00 02 01 01 
00:00:11:4383 Rx 1 0x100 s 8 1F 00 00 00 00 01 01 00 
00:00:11:4385 Rx 2 0x210 s 8 36 01 00 00 10 02 00 01 
00:00:11:4385 Rx 1 0x110 s 8 36 01 00 00 10 01 00 00 
00:00:11:4386 Rx 2 0x211 s 8 9B 00 00 00 11 02 00 01 
00:00:11:4386 Rx 1 0x111 s 8 9B 00 00 00 11 01 00 00 
00:00:11:4393 Rx 2 0x210 s 8 37 01 00 00 10 02 00 01 
00:00:11:4393 Rx 1 0x110 s 8 37 01 00 00 10 01 00 00 
00:00:11:4403 Rx 1 0x110 s 8 38 01 00 00 10 01 00 00 
00:00:11:4403 Rx 2 0x210 s 8 38 01 00 00 10 02 00 01 
00:00:11:4405 Rx 2 0x211 s 8 9C 00 00 00 11 02 00 01 
00:00:11:4405 Rx 1 0x111 s 8 9C 00 00 00 11 01 00 00 
00:00:11:4413 Rx 2 0x210 s 8 39 01 00 00 10 02 00 01 
00:00:11:4413 Rx 1 0x110 s 8 39 01 00 00 10 01 00 00 
00:00:11:4423 Rx 1 0x110 s 8 3A 01 00 00 10 01 00 00 
00:00:11:4423 Rx 2 0x210 s 8 3A 01 00 00 10 02 00 01 
00:00:11:4425 Rx 2 0x211 s 8 9D 00 00 00 11 02 00 01 
00:00:11:4425 Rx 1 0x111 s 8 9D 00 00 00 11 01 00 00 
00:00:11:4433 Rx 2 0x210 s 8 3B 01 00 00 10 02 00 01 
00:00:11:4433 Rx 1 0x110 s 8 3B 01 00 00 10 01 00 00 
00:00:11:4443 Rx 1 0x110 s 8 3C 01 00 00 10 01 00 00 
00:00:11:4444 Rx 2 0x210 s 8 3C 01 00 00 10 02 00 01 
00:00:11:4445 Rx 2 0x211 s 8 9E 00 00 00 11 02 00 01 
00:00:11:4445 Rx 1 0x111 s 8 9E 00 00 00 11 01 00 00 
00:00:11:4453 Rx 1 0x110 s 8 3D 01 00 00 10 01 00 00 
00:00:11:4453 Rx 2 0x210 s 8 3D 01 00 00 10 02 00 01 
00:00:11:4463 Rx 1 0x110 s 8 3E 01 00 00 10 01 00 00 
00:00:11:4463 Rx 2 0x210 s 8 3E 01 00 00 10 02 00 01 
00:00:11:4465 Rx 2 0x211 s 8 9F 00 00 00 11 02 00 01 
00:00:11:4465 Rx 1 0x111 s 8 9F 00 00 00 11 01 00 00 
00:00:11:4473 Rx 1 0x110 s 8 3F 01 00 00 10 01 00 00 
00:00:11:4473 Rx 2 0x210 s 8 3F 01 00 00 10 02 00 01 
00:00:11:4483 Rx 2 0x200 s 8 20 00 00 00 00 02 01 01 
00:00:11:4483 Rx 1 0x100 s 8 20 00 00 00 00 01 01 00 
00:00:11:4485 Rx 1 0x101 s 8 10 00 00 00 01 01 01 00 
00:00:11:4485 Rx 2 0x201 s 8 10 00 00 00 01 02 01 01 
00:00:11:4486 Rx 2 0x210 s 8 40 01 00 00 10 02 00 01 
00:00:11:4486 Rx 1 0x110 s 8 40 01 00 00 10 01 00 00 
00:00:11:4487 Rx 1 0x111 s 8 A0 00 00 00 11 01 00 00 
00:00:11:4487 Rx 2 0x211 s 8 A0 00 00 00 11 02 00 01 
00:00:11:4493 Rx 1 0x110 s 8 41 01 00 00 10 01 00 00 
00:00:11:4493 Rx 2 0x210 s 8 41 01 00 00 10 02 00 01 
00:00:11:4503 Rx 2 0x210 s 8 42 01 00 00 10 02 00 01 
00:00:11:4504 Tx 1 0x54F x 8 00 00 00 00 00 00 00 00 
00:00:11:4505 Rx 2 0x211 s 8 A1 00 00 00 11 02 00 01 
00:00:11:4505 Rx 1 0x110 s 8 42 01 00 00 10 01 00 00 
00:00:11:4506 Tx 2 0x18FF20EF x 8 00 00 00 00 00 00 00 00 
00:00:11:4506 Tx 1 0x28C x 8 00 00 00 00 00 00 00 00 
00:00:11:4507 Rx 1 0x111 s 8 A1 00 00 00 11 01 00 00 
00:00:11:4513 Rx 2 0x210 s 8 43 01 00 00 10 02 00 01 
00:00:11:4513 Rx 1 0x110 s 8 43 01 00 00 10 01 00 00 
00:00:11:4523 Rx 2 0x210 s 8 44 01 00 00 10 02 00 01 
00:00:11:4523 Rx 1 0x110 s 8 44 01 00 00 10 01 00 00 
00:00:11:4525 Rx 1 0x111 s 8 A2 00 00 00 11 01 00 00 
00:00:11:4525 Rx 2 0x211 s 8 A2 00 00 00 11 02 00 01 
00:00:11:4533 Rx 1 0x110 s 8 45 01 00 00 10 01 00 00 
00:00:11:4533 Rx 2 0x210 s 8 45 01 00 00 10 02 00 01 
00:00:11:4543 Rx 2 0x210 s 8 46 01 00 00 10 02 00 01 
00:00:11:4543 Rx 1 0x110 s 8 46 01 00 00 10 01 00 00 
00:00:11:4545 Rx 1 0x111 s 8 A3 00 00 00 11 01 00 00 
00:00:11:4545 Rx 2 0x211 s 8 A3 00 00 00 11 02 00 01 
00:00:11:4553 Rx 2 0x210 s 8 47 01 00 00 10 02 00 01 
00:00:11:4553 Rx 1 0x110 s 8 47 01 00 00 10 01 00 00 
00:00:11:4563 Rx 1 0x110 s 8 48 01 00 00 10 01 00 00 
00:00:11:4563 Rx 2 0x210 s 8 48 01 00 00 10 02 00 01 
00:00:11:4565 Rx 2 0x211 s 8 A4 00 00 00 11 02 00 01 
00:00:11:4565 Rx 1 0x111 s 8 A4 00 00 00 11 01 00 00 
00:00:11:4573 Rx 1 0x110 s 8 49 01 00 00 10 01 00 00 
00:00:11:4573 Rx 2 0x210 s 8 49 01 00 00 10 02 00 01 
00:00:11:4583 Rx 2 0x200 s 8 21 00 00 00 00 02 01 01 
00:00:11:4583 Rx 1 0x100 s 8 21 00 00 00 00 01 01 00 
00:00:11:4585 Rx 1 0x110 s 8 4A 01 00 00 10 01 00 00 
00:00:11:4585 Rx 2 0x210 s 8 4A 01 00 00 10 02 00 01 
00:00:11:4586 Rx 2 0x211 s 8 A5 00 00 00 11 02 00 01 
00:00:11:4586 Rx 1 0x111 s 8 A5 00 00 00 11 01 00 00 
00:00:11:4593 Rx 1 0x110 s 8 4B 01 00 00 10 01 00 00 
00:00:11:4593 Rx 2 0x210 s 8 4B 01 00 00 10 02 00 01 
00:00:11:4603 Rx 2 0x210 s 8 4C 01 00 00 10 02 00 01 
00:00:11:4603 Rx 1 0x110 s 8 4C 01 00 00 10 01 00 00 
00:00:11:4605 Rx 2 0x211 s 8 A6 00 00 00 11 02 00 01 
00:00:11:4605 Rx 1 0x111 s 8 A6 00 00 00 11 01 00 00 
00:00:11:4613 Rx 1 0x110 s 8 4D 01 00 00 10 01 00 00 
00:00:11:4613 Rx 2 0x210 s 8 4D 01 00 00 10 02 00 01 
00:00:11:4623 Rx 2 0x210 s 8 4E 01 00 00 10 02 00 01 
00:00:11:4623 Rx 1 0x110 s 8 4E 01 00 00 10 01 00 00 
00:00:11:4625 Rx 1 0x111 s 8 A7 00 00 00 11 01 00 00 
00:00:11:4625 Rx 2 0x211 s 8 A7 00 00 00 11 02 00 01 
00:00:11:4633 Rx 1 0x110 s 8 4F 01 00 00 10 01 00 00 
00:00:11:4633 Rx 2 0x210 s 8 4F 01 00 00 10 02 00 01 
00:00:11:4643 Rx 2 0x210 s 8 50 01 00 00 10 02 00 01 
00:00:11:4643 Rx 1 0x110 s 8 50 01 00 00 10 01 00 00 
00:00:11:4645 Rx 2 0x211 s 8 A8 00 00 00 11 02 00 01 
00:00:11:4645 Rx 1 0x111 s 8 A8 00 00 00 11 01 00 00 
00:00:11:4653 Rx 2 0x210 s 8 51 01 00 00 10 02 00 01 
00:00:11:4653 Rx 1 0x110 s 8 51 01 00 00 10 01 00 00 
00:00:11:4655 Tx 2 0x18FF20EF x 8 00 00 00 00 00 00 00 00 
00:00:11:4655 Tx 1 0x54F x 8 00 00 00 00 00 00 00 00 
00:00:11:4656 Tx 1 0x28C x 8 00 00 00 00 00 00 00 00 
00:00:11:4663 Rx 2 0x210 s 8 52 01 00 00 10 02 00 01 
00:00:11:4663 Rx 1 0x110 s 8 52 01 00 00 10 01 00 00 
00:00:11:4665 Rx 2 0x211 s 8 A9 00 00 00 11 02 00 01 
00:00:11:4665 Rx 1 0x111 s 8 A9 00 00 00 11 01 00 00 
00:00:11:4673 Rx 2 0x210 s 8 53 01 00 00 10 02 00 01 
00:00:11:4673 Rx 1 0x110 s 8 53 01 00 00 10 01 00 00 
00:00:11:4683 Rx 1 0x100 s 8 22 00 00 00 00 01 01 00 
00:00:11:4683 Rx 2 0x200 s 8 22 00 00 00 00 02 01 01 
00:00:11:4685 Rx 2 0x201 s 8 11 00 00 00 01 02 01 01 
00:00:11:4685 Rx 1 0x101 s 8 11 00 00 00 01 01 01 00 
00:00:11:4686 Rx 1 0x110 s 8 54 01 00 00 10 01 00 00 
00:00:11:4686 Rx 2 0x210 s 8 54 01 00 00 10 02 00 01 
00:00:11:4687 Rx 2 0x211 s 8 AA 00 00 00 11 02 00 01 
00:00:11:4687 Rx 1 0x111 s 8 AA 00 00 00 11 01 00 00 
00:00:11:4693 Rx 2 0x210 s 8 55 01 00 00 10 02 00 01 
00:00:11:4693 Rx 1 0x110 s 8 55 01 00 00 10 01 00 00 
00:00:11:4703 Rx 1 0x110 s 8 56 01 00 00 10 01 00 00 
00:00:11:4703 Rx 2 0x210 s 8 56 01 00 00 10 02 00 01 
00:00:11:4705 Rx 2 0x211 s 8 AB 00 00 00 11 02 00 01 
00:00:11:4705 Rx 1 0x111 s 8 AB 00 00 00 11 01 00 00 
00:00:11:4713 Rx 2 0x210 s 8 57 01 00 00 10 02 00 01 
00:00:11:4713 Rx 1 0x110 s 8 57 01 00 00 10 01 00 00 
00:00:11:4723 Rx 2 0x210 s 8 58 01 00 00 10 02 00 01 
00:00:11:4723 Rx 1 0x110 s 8 58 01 00 00 10 01 00 00 
00:00:11:4725 Rx 1 0x111 s 8 AC 00 00 00 11 01 00 00 
00:00:11:4725 Rx 2 0x211 s 8 AC 00 00 00 11 02 00 01 
00:00:11:4733 Rx 1 0x110 s 8 59 01 00 00 10 01 00 00 
00:00:11:4733 Rx 2 0x210 s 8 59 01 00 00 10 02 00 01 
00:00:11:4743 Rx 1 0x110 s 8 5A 01 00 00 10 01 00 00 
00:00:11:4743 Rx 2 0x210 s 8 5A 01 00 00 10 02 00 01 
00:00:11:4745 Rx 2 0x211 s 8 AD 00 00 00 11 02 00 01 
00:00:11:4745 Rx 1 0x111 s 8 AD 00 00 00 11 01 00 00 
00:00:11:4753 Rx 2 0x210 s 8 5B 01 00 00 10 02 00 01 
00:00:11:4753 Rx 1 0x110 s 8 5B 01 00 00 10 01 00 00 
00:00:11:4763 Rx 2 0x210 s 8 5C 01 00 00 10 02 00 01 
00:00:11:4763 Rx 1 0x110 s 8 5C 01 00 00 10 01 00 00 
00:00:11:4765 Rx 2 0x211 s 8 AE 00 00 00 11 02 00 01 
00:00:11:4765 Rx 1 0x111 s 8 AE 00 00 00 11 01 00 00 
00:00:11:4773 Rx 1 0x110 s 8 5D 01 00 00 10 01 00 00 
00:00:11:4773 Rx 2 0x210 s 8 5D 01 00 00 10 02 00 01 
00:00:11:4783 Rx 2 0x200 s 8 23 00 00 00 00 02 01 01 
00:00:11:4783 Rx 1 0x100 s 8 23 00 00 00 00 01 01 00 
00:00:11:4785 Rx 1 0x110 s 8 5E 01 00 00 10 01 00 00 
00:00:11:4785 Rx 2 0x210 s 8 5E 01 00 00 10 02 00 01 
00:00:11:4786 Rx 2 0x211 s 8 AF 00 00 00 11 02 00 01 
00:00:11:4786 Rx 1 0x111 s 8 AF 00 00 00 11 01 00 00 
00:00:11:4793 Rx 1 0x110 s 8 5F 01 00 00 10 01 00 00 
00:00:11:4793 Rx 2 0x210 s 8 5F 01 00 00 10 02 00 01 
00:00:11:4803 Rx 2 0x210 s 8 60 01 00 00 10 02 00 01 
00:00:11:4803 Rx 1 0x110 s 8 60 01 00 00 10 01 00 00 
00:00:11:4805 Rx 2 0x211 s 8 B0 00 00 00 11 02 00 01 
00:00:11:4805 Tx 1 0x54F x 8 00 00 00 00 00 00 00 00 
00:00:11:4806 Tx 2 0x18FF20EF x 8 00 00 00 00 00 00 00 00 
00:00:11:4806 Rx 1 0x111 s 8 B0 00 00 00 11 01 00 00 
00:00:11:4808 Tx 1 0x28C x 8 00 00 00 00 00 00 00 00 
00:00:11:4813 Rx 2 0x210 s 8 61 01 00 00 10 02 00 01 
00:00:11:4813 Rx 1 0x110 s 8 61 01 00 00 10 01 00 00 
00:00:11:4823 Rx 1 0x110 s 8 62 01 00 00 10 01 00 00 
00:00:11:4823 Rx 2 0x210 s 8 62 01 00 00 10 02 00 01 
00:00:11:4825 Rx 2 0x211 s 8 B1 00 00 00 11 02 00 01 
00:00:11:4825 Rx 1 0x111 s 8 B1 00 00 00 11 01 00 00 
00:00:11:4833 Rx 2 0x210 s 8 63 01 00 00 10 02 00 01 
00:00:11:4833 Rx 1 0x110 s 8 63 01 00 00 10 01 00 00 
00:00:11:4843 Rx 2 0x210 s 8 64 01 00 00 10 02 00 01 
00:00:11:4843 Rx 1 0x110 s 8 64 01 00 00 10 01 00 00 
00:00:11:4845 Rx 1 0x111 s 8 B2 00 00 00 11 01 00 00 
00:00:11:4845 Rx 2 0x211 s 8 B2 00 00 00 11 02 00 01 
00:00:11:4853 Rx 1 0x110 s 8 65 01 00 00 10 01 00 00 
00:00:11:4853 Rx 2 0x210 s 8 65 01 00 00 10 02 00 01 
00:00:11:4863 Rx 1 0x110 s 8 66 01 00 00 10 01 00 00 
00:00:11:4863 Rx 2 0x210 s 8 66 01 00 00 10 02 00 01 
00:00:11:4865 Rx 2 0x211 s 8 B3 00 00 00 11 02 00 01 
00:00:11:4865 Rx 1 0x111 s 8 B3 00 00 00 11 01 00 00 
00:00:11:4873 Rx 1 0x110 s 8 67 01 00 00 10 01 00 00 
00:00:11:4873 Rx 2 0x210 s 8 67 01 00 00 10 02 00 01 
00:00:11:4883 Rx 2 0x200 s 8 24 00 00 00 00 02 01 01 
00:00:11:4883 Rx 1 0x100 s 8 24 00 00 00 00 01 01 00 
00:00:11:4885 Rx 1 0x101 s 8 12 00 00 00 01 01 01 00 
00:00:11:4885 Rx 2 0x201 s 8 12 00 00 00 01 02 01 01 
00:00:11:4886 Rx 2 0x210 s 8 68 01 00 00 10 02 00 01 
00:00:11:4886 Rx 1 0x110 s 8 68 01 00 00 10 01 00 00 
00:00:11:4887 Rx 1 0x111 s 8 B4 00 00 00 11 01 00 00 
00:00:11:4887 Rx 2 0x211 s 8 B4 00 00 00 11 02 00 01 
00:00:11:4893 Rx 1 0x110 s 8 69 01 00 00 10 01 00 00 
00:00:11:4893 Rx 2 0x210 s 8 69 01 00 00 10 02 00 01 
00:00:11:4903 Rx 2 0x210 s 8 6A 01 00 00 10 02 00 01 
00:00:11:4903 Rx 1 0x110 s 8 6A 01 00 00 10 01 00 00 
00:00:11:4905 Rx 1 0x111 s 8 B5 00 00 00 11 01 00 00 
00:00:11:4905 Rx 2 0x211 s 8 B5 00 00 00 11 02 00 01 
00:00:11:4913 Rx 1 0x110 s 8 6B 01 00 00 10 01 00 00 
00:00:11:4913 Rx 2 0x210 s 8 6B 01 00 00 10 02 00 01 
00:00:11:4923 Rx 2 0x210 s 8 6C 01 00 00 10 02 00 01 
00:00:11:4923 Rx 1 0x110 s 8 6C 01 00 00 10 01 00 00 
00:00:11:4925 Rx 2 0x211 s 8 B6 00 00 00 11 02 00 01 
00:00:11:4925 Rx 1 0x111 s 8 B6 00 00 00 11 01 00 00 
00:00:11:4933 Rx 1 0x110 s 8 6D 01 00 00 10 01 00 00 
00:00:11:4933 Rx 2 0x210 s 8 6D 01 00 00 10 02 00 01 
00:00:11:4943 Rx 2 0x210 s 8 6E 01 00 00 10 02 00 01 
00:00:11:4943 Rx 1 0x110 s 8 6E 01 00 00 10 01 00 00 
00:00:11:4945 Rx 1 0x111 s 8 B7 00 00 00 11 01 00 00 
00:00:11:4945 Rx 2 0x211 s 8 B7 00 00 00 11 02 00 01 
00:00:11:4953 Rx 1 0x110 s 8 6F 01 00 00 10 01 00 00 
00:00:11:4953 Rx 2 0x210 s 8 6F 01 00 00 10 02 00 01 
00:00:11:4963 Rx 2 0x210 s 8 70 01 00 00 10 02 00 01 
00:00:11:4963 Rx 1 0x110 s 8 70 01 00 00 10 01 00 00 
00:00:11:4965 Rx 1 0x111 s 8 B8 00 00 00 11 01 00 00 
00:00:11:4965 Rx 2 0x211 s 8 B8 00 00 00 11 02 00 01 
00:00:11:4973 Rx 2 0x210 s 8 71 01 00 00 10 02 00 01 
00:00:11:4973 Rx 1 0x110 s 8 71 01 00 00 10 01 00 00 
00:00:11:4983 Rx 2 0x200 s 8 25 00 00 00 00 02 01 01 
00:00:11:4983 Rx 1 0x100 s 8 25 00 00 00 00 01 01 00 
00:00:11:4985 Rx 1 0x110 s 8 72 01 00 00 10 01 00 00 
00:00:11:4985 Rx 2 0x210 s 8 72 01 00 00 10 02 00 01 
00:00:11:4986 Rx 2 0x211 s 8 B9 00 00 00 11 02 00 01 
00:00:11:4986 Rx 1 0x111 s 8 B9 00 00 00 11 01 00 00 
00:00:11:4993 Tx 1 0x54F x 8 00 00 00 00 00 00 00 00 
00:00:11:4993 Rx 2 0x210 s 8 73 01 00 00 10 02 00 01 
00:00:11:4994 Rx 1 0x110 s 8 73 01 00 00 10 01 00 00 
00:00:11:4995 Tx 2 0x18FF20EF x 8 00 00 00 00 00 00 00 00 
00:00:11:4996 Tx 1 0x28C x 8 00 00 00 00 00 00 00 00 
00:00:11:5003 Rx 2 0x210 s 8 74 01 00 00 10 02 00 01 
00:00:11:5003 Rx 1 0x110 s 8 74 01 00 00 10 01 00 00 
00:00:11:5005 Rx 2 0x211 s 8 BA 00 00 00 11 02 00 01 
00:00:11:5005 Rx 1 0x111 s 8 BA 00 00 00 11 01 00 00 
00:00:11:5013 Rx 2 0x210 s 8 75 01 00 00 10 02 00 01 
00:00:11:5013 Rx 1 0x110 s 8 75 01 00 00 10 01 00 00 
00:00:11:5023 Rx 1 0x110 s 8 76 01 00 00 10 01 00 00 
00:00:11:5023 Rx 2 0x210 s 8 76 01 00 00 10 02 00 01 
00:00:11:5025 Rx 2 0x211 s 8 BB 00 00 00 11 02 00 01 
00:00:11:5025 Rx 1 0x111 s 8 BB 00 00 00 11 01 00 00 
00:00:11:5033 Rx 2 0x210 s 8 77 01 00 00 10 02 00 01 
00:00:11:5033 Rx 1 0x110 s 8 77 01 00 00 10 01 00 00 
00:00:11:5043 Rx 1 0x110 s 8 78 01 00 00 10 01 00 00 
00:00:11:5043 Rx 2 0x210 s 8 78 01 00 00 10 02 00 01 
00:00:11:5045 Rx 2 0x211 s 8 BC 00 00 00 11 02 00 01 
00:00:11:5045 Rx 1 0x111 s 8 BC 00 00 00 11 01 00 00 
00:00:11:5053 Rx 2 0x210 s 8 79 01 00 00 10 02 00 01 
00:00:11:5053 Rx 1 0x110 s 8 79 01 00 00 10 01 00 00 
00:00:11:5063 Rx 2 0x210 s 8 7A 01 00 00 10 02 00 01 
00:00:11:5063 Rx 1 0x110 s 8 7A 01 00 00 10 01 00 00 
00:00:11:5065 Rx 2 0x211 s 8 BD 00 00 00 11 02 00 01 
00:00:11:5065 Rx 1 0x111 s 8 BD 00 00 00 11 01 00 00 
00:00:11:5073 Rx 1 0x110 s 8 7B 01 00 00 10 01 00 00 
00:00:11:5073 Rx 2 0x210 s 8 7B 01 00 00 10 02 00 01 
00:00:11:5083 Rx 2 0x200 s 8 26 00 00 00 00 02 01 01 
00:00:11:5083 Rx 1 0x100 s 8 26 00 00 00 00 01 01 00 
00:00:11:5085 Rx 2 0x201 s 8 13 00 00 00 01 02 01 01 
00:00:11:5085 Rx 1 0x101 s 8 13 00 00 00 01 01 01 00 
00:00:11:5086 Rx 2 0x210 s 8 7C 01 00 00 10 02 00 01 
00:00:11:5086 Rx 1 0x110 s 8 7C 01 00 00 10 01 00 00 
00:00:11:5087 Rx 2 0x211 s 8 BE 00 00 00 11 02 00 01 
00:00:11:5087 Rx 1 0x111 s 8 BE 00 00 00 11 01 00 00 
00:00:11:5093 Rx 2 0x210 s 8 7D 01 00 00 10 02 00 01 
00:00:11:5093 Rx 1 0x110 s 8 7D 01 00 00 10 01 00 00 
00:00:11:5103 Rx 1 0x110 s 8 7E 01 00 00 10 01 00 00 
00:00:11:5103 Rx 2 0x210 s 8 7E 01 00 00 10 02 00 01 
00:00:11:5105 Rx 2 0x211 s 8 BF 00 00 00 11 02 00 01 
00:00:11:5105 Rx 1 0x111 s 8 BF 00 00 00 11 01 00 00 
00:00:11:5113 Rx 2 0x210 s 8 7F 01 00 00 10 02 00 01 
00:00:11:5113 Rx 1 0x110 s 8 7F 01 00 00 10 01 00 00 
00:00:11:5123 Rx 1 0x110 s 8 80 01 00 00 10 01 00 00 
00:00:11:5123 Rx 2 0x210 s 8 80 01 00 00 10 02 00 01 
00:00:11:5125 Rx 2 0x211 s 8 C0 00 00 00 11 02 00 01 
00:00:11:5125 Rx 1 0x111 s 8 C0 00 00 00 11 01 00 00 
00:00:11:5133 Rx 2 0x210 s 8 81 01 00 00 10 02 00 01 
00:00:11:5133 Rx 1 0x110 s 8 81 01 00 00 10 01 00 00 
00:00:11:5143 Rx 1 0x110 s 8 82 01 00 00 10 01 00 00 
00:00:11:5143 Rx 2 0x210 s 8 82 01 00 00 10 02 00 01 
00:00:11:5145 Rx 2 0x211 s 8 C1 00 00 00 11 02 00 01 
00:00:11:5145 Rx 1 0x111 s 8 C1 00 00 00 11 01 00 00 
00:00:11:5153 Tx 1 0x54F x 8 00 00 00 00 00 00 00 00 
00:00:11:5153 Rx 2 0x210 s 8 83 01 00 00 10 02 00 01 
00:00:11:5155 Rx 1 0x110 s 8 83 01 00 00 10 01 00 00 
00:00:11:5155 Tx 2 0x18FF20EF x 8 00 00 00 00 00 00 00 00 
00:00:11:5156 Tx 1 0x28C x 8 00 00 00 00 00 00 00 00 
00:00:11:5163 Rx 2 0x210 s 8 84 01 00 00 10 02 00 01 
00:00:11:5163 Rx 1 0x110 s 8 84 01 00 00 10 01 00 00 
00:00:11:5165 Rx 1 0x111 s 8 C2 00 00 00 11 01 00 00 
00:00:11:5165 Rx 2 0x211 s 8 C2 00 00 00 11 02 00 01 
00:00:11:5173 Rx 2 0x210 s 8 85 01 00 00 10 02 00 01 
00:00:11:5173 Rx 1 0x110 s 8 85 01 00 00 10 01 00 00 
00:00:11:5183 Rx 2 0x200 s 8 27 00 00 00 00 02 01 01 
00:00:11:5183 Rx 1 0x100 s 8 27 00 00 00 00 01 01 00 
00:00:11:5185 Rx 1 0x110 s 8 86 01 00 00 10 01 00 00 
00:00:11:5185 Rx 2 0x210 s 8 86 01 00 00 10 02 00 01 
00:00:11:5186 Rx 2 0x211 s 8 C3 00 00 00 11 02 00 01 
00:00:11:5186 Rx 1 0x111 s 8 C3 00 00 00 11 01 00 00 
00:00:11:5193 Rx 1 0x110 s 8 87 01 00 00 10 01 00 00 
00:00:11:5193 Rx 2 0x210 s 8 87 01 00 00 10 02 00 01 
00:00:11:5203 Rx 2 0x210 s 8 88 01 00 00 10 02 00 01 
00:00:11:5203 Rx 1 0x110 s 8 88 01 00 00 10 01 00 00 
00:00:11:5205 Rx 1 0x111 s 8 C4 00 00 00 11 01 00 00 
00:00:11:5205 Rx 2 0x211 s 8 C4 00 00 00 11 02 00 01 
00:00:11:5213 Rx 1 0x110 s 8 89 01 00 00 10 01 00 00 
00:00:11:5213 Rx 2 0x210 s 8 89 01 00 00 10 02 00 01 
00:00:11:5223 Rx 1 0x110 s 8 8A 01 00 00 10 01 00 00 
00:00:11:5223 Rx 2 0x210 s 8 8A 01 00 00 10 02 00 01 
00:00:11:5225 Rx 2 0x211 s 8 C5 00 00 00 11 02 00 01 
00:00:11:5225 Rx 1 0x111 s 8 C5 00 00 00 11 01 00 00 
00:00:11:5233 Rx 1 0x110 s 8 8B 01 00 00 10 01 00 00 
00:00:11:5233 Rx 2 0x210 s 8 8B 01 00 00 10 02 00 01 
00:00:11:5243 Rx 2 0x210 s 8 8C 01 00 00 10 02 00 01 
00:00:11:5243 Rx 1 0x110 s 8 8C 01 00 00 10 01 00 00 
00:00:11:5245 Rx 2 0x211 s 8 C6 00 00 00 11 02 00 01 
00:00:11:5245 Rx 1 0x111 s 8 C6 00 00 00 11 01 00 00 
00:00:11:5253 Rx 1 0x110 s 8 8D 01 00 00 10 01 00 00 
00:00:11:5253 Rx 2 0x210 s 8 8D 01 00 00 10 02 00 01 
00:00:11:5263 Rx 2 0x210 s 8 8E 01 00 00 10 02 00 01 
00:00:11:5263 Rx 1 0x110 s 8 8E 01 00 00 10 01 00 00 
00:00:11:5265 Rx 1 0x111 s 8 C7 00 00 00 11 01 00 00 
00:00:11:5265 Rx 2 0x211 s 8 C7 00 00 00 11 02 00 01 
00:00:11:5273 Rx 1 0x110 s 8 8F 01 00 00 10 01 00 00 
00:00:11:5273 Rx 2 0x210 s 8 8F 01 00 00 10 02 00 01 
00:00:11:5283 Rx 2 0x200 s 8 28 00 00 00 00 02 01 01 
00:00:11:5283 Rx 1 0x100 s 8 28 00 00 00 00 01 01 00 
00:00:11:5285 Rx 1 0x101 s 8 14 00 00 00 01 01 01 00 
00:00:11:5285 Rx 2 0x201 s 8 14 00 00 00 01 02 01 01 
00:00:11:5286 Rx 2 0x210 s 8 90 01 00 00 10 02 00 01 
00:00:11:5286 Rx 1 0x110 s 8 90 01 00 00 10 01 00 00 
00:00:11:5287 Rx 1 0x111 s 8 C8 00 00 00 11 01 00 00 
00:00:11:5287 Rx 2 0x211 s 8 C8 00 00 00 11 02 00 01 
00:00:11:5293 Rx 1 0x110 s 8 91 01 00 00 10 01 00 00 
00:00:11:5293 Rx 2 0x210 s 8 91 01 00 00 10 02 00 01 
00:00:11:5303 Rx 2 0x210 s 8 92 01 00 00 10 02 00 01 
00:00:11:5303 Rx 1 0x110 s 8 92 01 00 00 10 01 00 00 
00:00:11:5305 Rx 1 0x111 s 8 C9 00 00 00 11 01 00 00 
00:00:11:5305 Rx 2 0x211 s 8 C9 00 00 00 11 02 00 01 
00:00:11:5313 Rx 2 0x210 s 8 93 01 00 00 10 02 00 01 
00:00:11:5313 Rx 1 0x110 s 8 93 01 00 00 10 01 00 00 
00:00:11:5323 Rx 2 0x210 s 8 94 01 00 00 10 02 00 01 
00:00:11:5323 Rx 1 0x110 s 8 94 01 00 00 10 01 00 00 
00:00:11:5325 Rx 1 0x111 s 8 CA 00 00 00 11 01 00 00 
00:00:11:5325 Rx 2 0x211 s 8 CA 00 00 00 11 02 00 01 
00:00:11:5333 Rx 1 0x110 s 8 95 01 00 00 10 01 00 00 
00:00:11:5333 Rx 2 0x210 s 8 95 01 00 00 10 02 00 01 
00:00:11:5343 Tx 1 0x54F x 8 00 00 00 00 00 00 00 00 
00:00:11:5343 Rx 2 0x210 s 8 96 01 00 00 10 02 00 01 
00:00:11:5344 Rx 1 0x110 s 8 96 01 00 00 10 01 00 00 
00:00:11:5345 Rx 2 0x211 s 8 CB 00 00 00 11 02 00 01 
00:00:11:5346 Tx 2 0x18FF20EF x 8 00 00 00 00 00 00 00 00 
00:00:11:5346 Tx 1 0x28C x 8 00 00 00 00 00 00 00 00 
00:00:11:5347 Rx 1 0x111 s 8 CB 00 00 00 11 01 00 00 
00:00:11:5353 Rx 1 0x110 s 8 97 01 00 00 10 01 00 00 
00:00:11:5353 Rx 2 0x210 s 8 97 01 00 00 10 02 00 01 
00:00:11:5363 Rx 2 0x210 s 8 98 01 00 00 10 02 00 01 
00:00:11:5363 Rx 1 0x110 s 8 98 01 00 00 10 01 00 00 
00:00:11:5365 Rx 1 0x111 s 8 CC 00 00 00 11 01 00 00 
00:00:11:5365 Rx 2 0x211 s 8 CC 00 00 00 11 02 00 01 
00:00:11:5373 Rx 1 0x110 s 8 99 01 00 00 10 01 00 00 
00:00:11:5373 Rx 2 0x210 s 8 99 01 00 00 10 02 00 01 
00:00:11:5383 Rx 2 0x200 s 8 29 00 00 00 00 02 01 01 
00:00:11:5383 Rx 1 0x100 s 8 29 00 00 00 00 01 01 00 
00:00:11:5385 Rx 1 0x110 s 8 9A 01 00 00 10 01 00 00 
00:00:11:5385 Rx 2 0x210 s 8 9A 01 00 00 10 02 00 01 
00:00:11:5386 Rx 2 0x211 s 8 CD 00 00 00 11 02 00 01 
00:00:11:5386 Rx 1 0x111 s 8 CD 00 00 00 11 01 00 00 
00:00:11:5393 Rx 1 0x110 s 8 9B 01 00 00 10 01 00 00 
00:00:11:5393 Rx 2 0x210 s 8 9B 01 00 00 10 02 00 01 
00:00:11:5403 Rx 2 0x210 s 8 9C 01 00 00 10 02 00 01 
00:00:11:5403 Rx 1 0x110 s 8 9C 01 00 00 10 01 00 00 
00:00:11:5405 Rx 1 0x111 s 8 CE 00 00 00 11 01 00 00 
00:00:11:5405 Rx 2 0x211 s 8 CE 00 00 00 11 02 00 01 
00:00:11:5413 Rx 1 0x110 s 8 9D 01 00 00 10 01 00 00 
00:00:11:5413 Rx 2 0x210 s 8 9D 01 00 00 10 02 00 01 
00:00:11:5423 Rx 1 0x110 s 8 9E 01 00 00 10 01 00 00 
00:00:11:5423 Rx 2 0x210 s 8 9E 01 00 00 10 02 00 01 
00:00:11:5425 Rx 2 0x211 s 8 CF 00 00 00 11 02 00 01 
00:00:11:5425 Rx 1 0x111 s 8 CF 00 00 00 11 01 00 00 
00:00:11:5433 Rx 1 0x110 s 8 9F 01 00 00 10 01 00 00 
00:00:11:5433 Rx 2 0x210 s 8 9F 01 00 00 10 02 00 01 
00:00:11:5443 Rx 2 0x210 s 8 A0 01 00 00 10 02 00 01 
00:00:11:5443 Rx 1 0x110 s 8 A0 01 00 00 10 01 00 00 
00:00:11:5445 Rx 1 0x111 s 8 D0 00 00 00 11 01 00 00 
00:00:11:5445 Rx 2 0x211 s 8 D0 00 00 00 11 02 00 01 
00:00:11:5453 Rx 1 0x110 s 8 A1 01 00 00 10 01 00 00 
00:00:11:5453 Rx 2 0x210 s 8 A1 01 00 00 10 02 00 01 
00:00:11:5463 Rx 1 0x110 s 8 A2 01 00 00 10 01 00 00 
00:00:11:5463 Rx 2 0x210 s 8 A2 01 00 00 10 02 00 01 
00:00:11:5465 Rx 2 0x211 s 8 D1 00 00 00 11 02 00 01 
00:00:11:5465 Rx 1 0x111 s 8 D1 00 00 00 11 01 00 00 
00:00:11:5473 Rx 1 0x110 s 8 A3 01 00 00 10 01 00 00 
00:00:11:5473 Rx 2 0x210 s 8 A3 01 00 00 10 02 00 01 
00:00:11:5483 Rx 2 0x200 s 8 2A 00 00 00 00 02 01 01 
00:00:11:5483 Rx 1 0x100 s 8 2A 00 00 00 00 01 01 00 
00:00:11:5485 Rx 1 0x101 s 8 15 00 00 00 01 01 01 00 
00:00:11:5485 Rx 2 0x201 s 8 15 00 00 00 01 02 01 01 
00:00:11:5486 Rx 2 0x210 s 8 A4 01 00 00 10 02 00 01 
00:00:11:5486 Rx 1 0x110 s 8 A4 01 00 00 10 01 00 00 
00:00:11:5487 Rx 1 0x111 s 8 D2 00 00 00 11 01 00 00 
00:00:11:5487 Rx 2 0x211 s 8 D2 00 00 00 11 02 00 01 
00:00:11:5493 Rx 2 0x210 s 8 A5 01 00 00 10 02 00 01 
00:00:11:5493 Rx 1 0x110 s 8 A5 01 00 00 10 01 00 00 
00:00:11:5495 Tx 2 0x18FF20EF x 8 00 00 00 00 00 00 00 00 
00:00:11:5495 Tx 1 0x54F x 8 00 00 00 00 00 00 00 00 
00:00:11:5496 Tx 1 0x28C x 8 00 00 00 00 00 00 00 00 
00:00:11:5503 Rx 2 0x210 s 8 A6 01 00 00 10 02 00 01 
00:00:11:5503 Rx 1 0x110 s 8 A6 01 00 00 10 01 00 00 
00:00:11:5505 Rx 1 0x111 s 8 D3 00 00 00 11 01 00 00 
00:00:11:5505 Rx 2 0x211 s 8 D3 00 00 00 11 02 00 01 
00:00:11:5513 Rx 1 0x110 s 8 A7 01 00 00 10 01 00 00 
00:00:11:5513 Rx 2 0x210 s 8 A7 01 00 00 10 02 00 01 
00:00:11:5523 Rx 1 0x110 s 8 A8 01 00 00 10 01 00 00 
00:00:11:5523 Rx 2 0x210 s 8 A8 01 00 00 10 02 00 01 
00:00:11:5525 Rx 2 0x211 s 8 D4 00 00 00 11 02 00 01 
00:00:11:5525 Rx 1 0x111 s 8 D4 00 00 00 11 01 00 00 
00:00:11:5533 Rx 1 0x110 s 8 A9 01 00 00 10 01 00 00 
00:00:11:5533 Rx 2 0x210 s 8 A9 01 00 00 10 02 00 01 
00:00:11:5543 Rx 2 0x210 s 8 AA 01 00 00 10 02 00 01 
00:00:11:5543 Rx 1 0x110 s 8 AA 01 00 00 10 01 00 00 
00:00:11:5545 Rx 1 0x111 s 8 D5 00 00 00 11 01 00 00 
00:00:11:5545 Rx 2 0x211 s 8 D5 00 00 00 11 02 00 01 
00:00:11:5553 Rx 1 0x110 s 8 AB 01 00 00 10 01 00 00 
00:00:11:5553 Rx 2 0x210 s 8 AB 01 00 00 10 02 00 01 
00:00:11:5563 Rx 1 0x110 s 8 AC 01 00 00 10 01 00 00 
00:00:11:5563 Rx 2 0x210 s 8 AC 01 00 00 10 02 00 01 
00:00:11:5565 Rx 2 0x211 s 8 D6 00 00 00 11 02 00 01 
00:00:11:5565 Rx 1 0x111 s 8 D6 00 00 00 11 01 00 00 
00:00:11:5573 Rx 1 0x110 s 8 AD 01 00 00 10 01 00 00 
00:00:11:5573 Rx 2 0x210 s 8 AD 01 00 00 10 02 00 01 
00:00:11:5583 Rx 2 0x200 s 8 2B 00 00 00 00 02 01 01 
00:00:11:5583 Rx 1 0x100 s 8 2B 00 00 00 00 01 01 00 
00:00:11:5585 Rx 1 0x110 s 8 AE 01 00 00 10 01 00 00 
00:00:11:5585 Rx 2 0x210 s 8 AE 01 00 00 10 02 00 01 
00:00:11:5586 Rx 2 0x211 s 8 D7 00 00 00 11 02 00 01 
00:00:11:5586 Rx 1 0x111 s 8 D7 00 00 00 11 01 00 00 
00:00:11:5593 Rx 2 0x210 s 8 AF 01 00 00 10 02 00 01 
00:00:11:5593 Rx 1 0x110 s 8 AF 01 00 00 10 01 00 00 
00:00:11:5603 Rx 2 0x210 s 8 B0 01 00 00 10 02 00 01 
00:00:11:5603 Rx 1 0x110 s 8 B0 01 00 00 10 01 00 00 
00:00:11:5605 Rx 1 0x111 s 8 D8 00 00 00 11 01 00 00 
00:00:11:5605 Rx 2 0x211 s 8 D8 00 00 00 11 02 00 01 
00:00:11:5613 Rx 1 0x110 s 8 B1 01 00 00 10 01 00 00 
00:00:11:5613 Rx 2 0x210 s 8 B1 01 00 00 10 02 00 01 
00:00:11:5623 Rx 1 0x110 s 8 B2 01 00 00 10 01 00 00 
00:00:11:5623 Rx 2 0x210 s 8 B2 01 00 00 10 02 00 01 
00:00:11:5625 Rx 2 0x211 s 8 D9 00 00 00 11 02 00 01 
00:00:11:5625 Rx 1 0x111 s 8 D9 00 00 00 11 01 00 00 
00:00:11:5633 Rx 1 0x110 s 8 B3 01 00 00 10 01 00 00 
00:00:11:5633 Rx 2 0x210 s 8 B3 01 00 00 10 02 00 01 
00:00:11:5643 Rx 2 0x210 s 8 B4 01 00 00 10 02 00 01 
00:00:11:5643 Rx 1 0x110 s 8 B4 01 00 00 10 01 00 00 
00:00:11:5645 Rx 2 0x211 s 8 DA 00 00 00 11 02 00 01 
00:00:11:5645 Rx 1 0x111 s 8 DA 00 00 00 11 01 00 00 
00:00:11:5653 Rx 1 0x110 s 8 B5 01 00 00 10 01 00 00 
00:00:11:5653 Rx 2 0x210 s 8 B5 01 00 00 10 02 00 01 
00:00:11:5663 Rx 1 0x110 s 8 B6 01 00 00 10 01 00 00 
00:00:11:5663 Rx 2 0x210 s 8 B6 01 00 00 10 02 00 01 
00:00:11:5665 Rx 2 0x211 s 8 DB 00 00 00 11 02 00 01 
00:00:11:5665 Tx 1 0x54F x 8 00 00 00 00 00 00 00 00 
00:00:11:5666 Tx 2 0x18FF20EF x 8 00 00 00 00 00 00 00 00 
00:00:11:5666 Rx 1 0x111 s 8 DB 00 00 00 11 01 00 00 
00:00:11:5668 Tx 1 0x28C x 8 00 00 00 00 00 00 00 00 
00:00:11:5673 Rx 1 0x110 s 8 B7 01 00 00 10 01 00 00 
00:00:11:5673 Rx 2 0x210 s 8 B7 01 00 00 10 02 00 01 
00:00:11:5683 Rx 1 0x100 s 8 2C 00 00 00 00 01 01 00 
00:00:11:5683 Rx 2 0x200 s 8 2C 00 00 00 00 02 01 01 
00:00:11:5685 Rx 2 0x201 s 8 16 00 00 00 01 02 01 01 
00:00:11:5685 Rx 1 0x101 s 8 16 00 00 00 01 01 01 00 
00:00:11:5686 Rx 1 0x110 s 8 B8 01 00 00 10 01 00 00 
00:00:11:5686 Rx 2 0x210 s 8 B8 01 00 00 10 02 00 01 
00:00:11:5687 Rx 2 0x211 s 8 DC 00 00 00 11 02 00 01 
00:00:11:5687 Rx 1 0x111 s 8 DC 00 00 00 11 01 00 00 
00:00:11:5693 Rx 2 0x210 s 8 B9 01 00 00 10 02 00 01 
00:00:11:5693 Rx 1 0x110 s 8 B9 01 00 00 10 01 00 00 
00:00:11:5703 Rx 1 0x110 s 8 BA 01 00 00 10 01 00 00 
00:00:11:5703 Rx 2 0x210 s 8 BA 01 00 00 10 02 00 01 
00:00:11:5705 Rx 2 0x211 s 8 DD 00 00 00 11 02 00 01 
00:00:11:5705 Rx 1 0x111 s 8 DD 00 00 00 11 01 00 00 
00:00:11:5713 Rx 2 0x210 s 8 BB 01 00 00 10 02 00 01 
00:00:11:5713 Rx 1 0x110 s 8 BB 01 00 00 10 01 00 00 
00:00:11:5723 Rx 2 0x210 s 8 BC 01 00 00 10 02 00 01 
00:00:11:5723 Rx 1 0x110 s 8 BC 01 00 00 10 01 00 00 
00:00:11:5725 Rx 2 0x211 s 8 DE 00 00 00 11 02 00 01 
00:00:11:5725 Rx 1 0x111 s 8 DE 00 00 00 11 01 00 00 
00:00:11:5733 Rx 1 0x110 s 8 BD 01 00 00 10 01 00 00 
00:00:11:5733 Rx 2 0x210 s 8 BD 01 00 00 10 02 00 01 
00:00:11:5743 Rx 2 0x210 s 8 BE 01 00 00 10 02 00 01 
00:00:11:5743 Rx 1 0x110 s 8 BE 01 00 00 10 01 00 00 
00:00:11:5745 Rx 1 0x111 s 8 DF 00 00 00 11 01 00 00 
00:00:11:5745 Rx 2 0x211 s 8 DF 00 00 00 11 02 00 01 
00:00:11:5753 Rx 1 0x110 s 8 BF 01 00 00 10 01 00 00 
00:00:11:5753 Rx 2 0x210 s 8 BF 01 00 00 10 02 00 01 
00:00:11:5763 Rx 2 0x210 s 8 C0 01 00 00 10 02 00 01 
00:00:11:5763 Rx 1 0x110 s 8 C0 01 00 00 10 01 00 00 
00:00:11:5765 Rx 1 0x111 s 8 E0 00 00 00 11 01 00 00 
00:00:11:5765 Rx 2 0x211 s 8 E0 00 00 00 11 02 00 01 
00:00:11:5773 Rx 1 0x110 s 8 C1 01 00 00 10 01 00 00 
00:00:11:5773 Rx 2 0x210 s 8 C1 01 00 00 10 02 00 01 
00:00:11:5783 Rx 2 0x200 s 8 2D 00 00 00 00 02 01 01 
00:00:11:5783 Rx 1 0x100 s 8 2D 00 00 00 00 01 01 00 
00:00:11:5785 Rx 1 0x110 s 8 C2 01 00 00 10 01 00 00 
00:00:11:5785 Rx 2 0x210 s 8 C2 01 00 00 10 02 00 01 
00:00:11:5786 Rx 2 0x211 s 8 E1 00 00 00 11 02 00 01 
00:00:11:5786 Rx 1 0x111 s 8 E1 00 00 00 11 01 00 00 
00:00:11:5793 Rx 1 0x110 s 8 C3 01 00 00 10 01 00 00 
00:00:11:5793 Rx 2 0x210 s 8 C3 01 00 00 10 02 00 01 
00:00:11:5803 Rx 2 0x210 s 8 C4 01 00 00 10 02 00 01 
00:00:11:5803 Rx 1 0x110 s 8 C4 01 00 00 10 01 00 00 
00:00:11:5805 Rx 1 0x111 s 8 E2 00 00 00 11 01 00 00 
00:00:11:5805 Rx 2 0x211 s 8 E2 00 00 00 11 02 00 01 
00:00:11:5813 Rx 2 0x210 s 8 C5 01 00 00 10 02 00 01 
00:00:11:5813 Rx 1 0x110 s 8 C5 01 00 00 10 01 00 00 
00:00:11:5823 Rx 1 0x110 s 8 C6 01 00 00 10 01 00 00 
00:00:11:5823 Rx 2 0x210 s 8 C6 01 00 00 10 02 00 01 
00:00:11:5825 Rx 2 0x211 s 8 E3 00 00 00 11 02 00 01 
00:00:11:5825 Rx 1 0x111 s 8 E3 00 00 00 11 01 00 00 
00:00:11:5833 Rx 1 0x110 s 8 C7 01 00 00 10 01 00 00 
00:00:11:5833 Rx 2 0x210 s 8 C7 01 00 00 10 02 00 01 
00:00:11:5843 Tx 1 0x54F x 8 00 00 00 00 00 00 00 00 
00:00:11:5843 Rx 2 0x210 s 8 C8 01 00 00 10 02 00 01 
00:00:11:5844 Rx 1 0x110 s 8 C8 01 00 00 10 01 00 00 
00:00:11:5845 Rx 2 0x211 s 8 E4 00 00 00 11 02 00 01 
00:00:11:5846 Tx 1 0x28C x 8 00 00 00 00 00 00 00 00 
00:00:11:5846 Tx 2 0x18FF20EF x 8 00 00 00 00 00 00 00 00 
00:00:11:5847 Rx 1 0x111 s 8 E4 00 00 00 11 01 00 00 
00:00:11:5853 Rx 2 0x210 s 8 C9 01 00 00 10 02 00 01 
00:00:11:5853 Rx 1 0x110 s 8 C9 01 00 00 10 01 00 00 
00:00:11:5863 Rx 1 0x110 s 8 CA 01 00 00 10 01 00 00 
00:00:11:5863 Rx 2 0x210 s 8 CA 01 00 00 10 02 00 01 
00:00:11:5865 Rx 2 0x211 s 8 E5 00 00 00 11 02 00 01 
00:00:11:5865 Rx 1 0x111 s 8 E5 00 00 00 11 01 00 00 
00:00:11:5873 Rx 2 0x210 s 8 CB 01 00 00 10 02 00 01 
00:00:11:5873 Rx 1 0x110 s 8 CB 01 00 00 10 01 00 00 
00:00:11:5883 Rx 1 0x100 s 8 2E 00 00 00 00 01 01 00 
00:00:11:5883 Rx 2 0x200 s 8 2E 00 00 00 00 02 01 01 
00:00:11:5885 Rx 2 0x201 s 8 17 00 00 00 01 02 01 01 
00:00:11:5885 Rx 1 0x101 s 8 17 00 00 00 01 01 01 00 
00:00:11:5886 Rx 1 0x110 s 8 CC 01 00 00 10 01 00 00 
00:00:11:5886 Rx 2 0x210 s 8 CC 01 00 00 10 02 00 01 
00:00:11:5887 Rx 2 0x211 s 8 E6 00 00 00 11 02 00 01 
00:00:11:5887 Rx 1 0x111 s 8 E6 00 00 00 11 01 00 00 
00:00:11:5893 Rx 2 0x210 s 8 CD 01 00 00 10 02 00 01 
00:00:11:5893 Rx 1 0x110 s 8 CD 01 00 00 10 01 00 00 
00:00:11:5903 Rx 2 0x210 s 8 CE 01 00 00 10 02 00 01 
00:00:11:5903 Rx 1 0x110 s 8 CE 01 00 00 10 01 00 00 
00:00:11:5905 Rx 1 0x111 s 8 E7 00 00 00 11 01 00 00 
00:00:11:5905 Rx 2 0x211 s 8 E7 00 00 00 11 02 00 01 
00:00:11:5913 Rx 1 0x110 s 8 CF 01 00 00 10 01 00 00 
00:00:11:5913 Rx 2 0x210 s 8 CF 01 00 00 10 02 00 01 
00:00:11:5923 Rx 2 0x210 s 8 D0 01 00 00 10 02 00 01 
00:00:11:5923 Rx 1 0x110 s 8 D0 01 00 00 10 01 00 00 
00:00:11:5925 Rx 1 0x111 s 8 E8 00 00 00 11 01 00 00 
00:00:11:5925 Rx 2 0x211 s 8 E8 00 00 00 11 02 00 01 
00:00:11:5933 Rx 1 0x110 s 8 D1 01 00 00 10 01 00 00 
00:00:11:5933 Rx 2 0x210 s 8 D1 01 00 00 10 02 00 01 
00:00:11:5943 Rx 1 0x110 s 8 D2 01 00 00 10 01 00 00 
00:00:11:5943 Rx 2 0x210 s 8 D2 01 00 00 10 02 00 01 
00:00:11:5945 Rx 2 0x211 s 8 E9 00 00 00 11 02 00 01 
00:00:11:5945 Rx 1 0x111 s 8 E9 00 00 00 11 01 00 00 
00:00:11:5953 Rx 1 0x110 s 8 D3 01 00 00 10 01 00 00 
00:00:11:5953 Rx 2 0x210 s 8 D3 01 00 00 10 02 00 01 
00:00:11:5963 Rx 2 0x210 s 8 D4 01 00 00 10 02 00 01 
00:00:11:5963 Rx 1 0x110 s 8 D4 01 00 00 10 01 00 00 
00:00:11:5965 Rx 2 0x211 s 8 EA 00 00 00 11 02 00 01 
00:00:11:5965 Rx 1 0x111 s 8 EA 00 00 00 11 01 00 00 
00:00:11:5973 Rx 1 0x110 s 8 D5 01 00 00 10 01 00 00 
00:00:11:5973 Rx 2 0x210 s 8 D5 01 00 00 10 02 00 01 
00:00:11:5984 Rx 2 0x200 s 8 2F 00 00 00 00 02 01 01 
00:00:11:5983 Rx 1 0x100 s 8 2F 00 00 00 00 01 01 00 
00:00:11:5985 Rx 1 0x110 s 8 D6 01 00 00 10 01 00 00 
00:00:11:5985 Rx 2 0x210 s 8 D6 01 00 00 10 02 00 01 
00:00:11:5986 Rx 2 0x211 s 8 EB 00 00 00 11 02 00 01 
00:00:11:5986 Rx 1 0x111 s 8 EB 00 00 00 11 01 00 00 
00:00:11:5993 Rx 2 0x210 s 8 D7 01 00 00 10 02 00 01 
00:00:11:5993 Tx 1 0x54F x 8 00 00 00 00 00 00 00 00 
00:00:11:5995 Rx 1 0x110 s 8 D7 01 00 00 10 01 00 00 
00:00:11:5995 Tx 2 0x18FF20EF x 8 00 00 00 00 00 00 00 00 
00:00:11:5996 Tx 1 0x28C x 8 00 00 00 00 00 00 00 00 
00:00:11:6003 Rx 1 0x110 s 8 D8 01 00 00 10 01 00 00 
00:00:11:6003 Rx 2 0x210 s 8 D8 01 00 00 10 02 00 01 
00:00:11:6005 Rx 2 0x211 s 8 EC 00 00 00 11 02 00 01 
00:00:11:6005 Rx 1 0x111 s 8 EC 00 00 00 11 01 00 00 
00:00:11:6013 Rx 2 0x210 s 8 D9 01 00 00 10 02 00 01 
00:00:11:6013 Rx 1 0x110 s 8 D9 01 00 00 10 01 00 00 
00:00:11:6023 Rx 1 0x110 s 8 DA 01 00 00 10 01 00 00 
00:00:11:6023 Rx 2 0x210 s 8 DA 01 00 00 10 02 00 01 
00:00:11:6025 Rx 2 0x211 s 8 ED 00 00 00 11 02 00 01 
00:00:11:6025 Rx 1 0x111 s 8 ED 00 00 00 11 01 00 00 
00:00:11:6033 Rx 2 0x210 s 8 DB 01 00 00 10 02 00 01 
00:00:11:6033 Rx 1 0x110 s 8 DB 01 00 00 10 01 00 00 
00:00:11:6043 Rx 1 0x110 s 8 DC 01 00 00 10 01 00 00 
00:00:11:6043 Rx 2 0x210 s 8 DC 01 00 00 10 02 00 01 
00:00:11:6045 Rx 2 0x211 s 8 EE 00 00 00 11 02 00 01 
00:00:11:6045 Rx 1 0x111 s 8 EE 00 00 00 11 01 00 00 
00:00:11:6053 Rx 2 0x210 s 8 DD 01 00 00 10 02 00 01 
00:00:11:6053 Rx 1 0x110 s 8 DD 01 00 00 10 01 00 00 
00:00:11:6063 Rx 2 0x210 s 8 DE 01 00 00 10 02 00 01 
00:00:11:6063 Rx 1 0x110 s 8 DE 01 00 00 10 01 00 00 
00:00:11:6065 Rx 2 0x211 s 8 EF 00 00 00 11 02 00 01 
00:00:11:6065 Rx 1 0x111 s 8 EF 00 00 00 11 01 00 00 
00:00:11:6073 Rx 1 0x110 s 8 DF 01 00 00 10 01 00 00 
00:00:11:6073 Rx 2 0x210 s 8 DF 01 00 00 10 02 00 01 
00:00:11:6083 Rx 2 0x200 s 8 30 00 00 00 00 02 01 01 
00:00:11:6083 Rx 1 0x100 s 8 30 00 00 00 00 01 01 00 
00:00:11:6085 Rx 2 0x201 s 8 18 00 00 00 01 02 01 01 
00:00:11:6085 Rx 1 0x101 s 8 18 00 00 00 01 01 01 00 
00:00:11:6086 Rx 2 0x210 s 8 E0 01 00 00 10 02 00 01 
00:00:11:6086 Rx 1 0x110 s 8 E0 01 00 00 10 01 00 00 
00:00:11:6087 Rx 2 0x211 s 8 F0 00 00 00 11 02 00 01 
00:00:11:6087 Rx 1 0x111 s 8 F0 00 00 00 11 01 00 00 
00:00:11:6093 Rx 1 0x110 s 8 E1 01 00 00 10 01 00 00 
00:00:11:6093 Rx 2 0x210 s 8 E1 01 00 00 10 02 00 01 
00:00:11:6103 Rx 1 0x110 s 8 E2 01 00 00 10 01 00 00 
00:00:11:6103 Rx 2 0x210 s 8 E2 01 00 00 10 02 00 01 
00:00:11:6105 Rx 2 0x211 s 8 F1 00 00 00 11 02 00 01 
00:00:11:6105 Rx 1 0x111 s 8 F1 00 00 00 11 01 00 00 
00:00:11:6113 Rx 2 0x210 s 8 E3 01 00 00 10 02 00 01 
00:00:11:6113 Rx 1 0x110 s 8 E3 01 00 00 10 01 00 00 
00:00:11:6123 Rx 1 0x110 s 8 E4 01 00 00 10 01 00 00 
00:00:11:6123 Rx 2 0x210 s 8 E4 01 00 00 10 02 00 01 
00:00:11:6125 Rx 2 0x211 s 8 F2 00 00 00 11 02 00 01 
00:00:11:6125 Rx 1 0x111 s 8 F2 00 00 00 11 01 00 00 
00:00:11:6133 Rx 2 0x210 s 8 E5 01 00 00 10 02 00 01 
00:00:11:6133 Rx 1 0x110 s 8 E5 01 00 00 10 01 00 00 
00:00:11:6143 Tx 1 0x54F x 8 00 00 00 00 00 00 00 00 
00:00:11:6144 Rx 2 0x210 s 8 E6 01 00 00 10 02 00 01 
00:00:11:6144 Rx 1 0x110 s 8 E6 01 00 00 10 01 00 00 
00:00:11:6145 Rx 2 0x211 s 8 F3 00 00 00 11 02 00 01 
00:00:11:6146 Tx 1 0x28C x 8 00 00 00 00 00 00 00 00 
00:00:11:6146 Tx 2 0x18FF20EF x 8 00 00 00 00 00 00 00 00 
00:00:11:6147 Rx 1 0x111 s 8 F3 00 00 00 11 01 00 00 
00:00:11:6153 Rx 2 0x210 s 8 E7 01 00 00 10 02 00 01 
00:00:11:6153 Rx 1 0x110 s 8 E7 01 00 00 10 01 00 00 
00:00:11:6163 Rx 1 0x110 s 8 E8 01 00 00 10 01 00 00 
00:00:11:6163 Rx 2 0x210 s 8 E8 01 00 00 10 02 00 01 
00:00:11:6165 Rx 2 0x211 s 8 F4 00 00 00 11 02 00 01 
00:00:11:6165 Rx 1 0x111 s 8 F4 00 00 00 11 01 00 00 
00:00:11:6173 Rx 2 0x210 s 8 E9 01 00 00 10 02 00 01 
00:00:11:6173 Rx 1 0x110 s 8 E9 01 00 00 10 01 00 00 
00:00:11:6183 Rx 1 0x100 s 8 31 00 00 00 00 01 01 00 
00:00:11:6184 Rx 2 0x200 s 8 31 00 00 00 00 02 01 01 
00:00:11:6185 Rx 1 0x110 s 8 EA 01 00 00 10 01 00 00 
00:00:11:6185 Rx 2 0x210 s 8 EA 01 00 00 10 02 00 01 
00:00:11:6186 Rx 2 0x211 s 8 F5 00 00 00 11 02 00 01 
00:00:11:6186 Rx 1 0x111 s 8 F5 00 00 00 11 01 00 00 
00:00:11:6193 Rx 2 0x210 s 8 EB 01 00 00 10 02 00 01 
00:00:11:6193 Rx 1 0x110 s 8 EB 01 00 00 10 01 00 00 
00:00:11:6203 Rx 1 0x110 s 8 EC 01 00 00 10 01 00 00 
00:00:11:6203 Rx 2 0x210 s 8 EC 01 00 00 10 02 00 01 
00:00:11:6205 Rx 2 0x211 s 8 F6 00 00 00 11 02 00 01 
00:00:11:6205 Rx 1 0x111 s 8 F6 00 00 00 11 01 00 00 
00:00:11:6213 Rx 2 0x210 s 8 ED 01 00 00 10 02 00 01 
00:00:11:6213 Rx 1 0x110 s 8 ED 01 00 00 10 01 00 00 
00:00:11:6223 Rx 1 0x110 s 8 EE 01 00 00 10 01 00 00 
00:00:11:6223 Rx 2 0x210 s 8 EE 01 00 00 10 02 00 01 
00:00:11:6225 Rx 2 0x211 s 8 F7 00 00 00 11 02 00 01 
00:00:11:6225 Rx 1 0x111 s 8 F7 00 00 00 11 01 00 00 
00:00:11:6233 Rx 2 0x210 s 8 EF 01 00 00 10 02 00 01 
00:00:11:6233 Rx 1 0x110 s 8 EF 01 00 00 10 01 00 00 
00:00:11:6243 Rx 2 0x210 s 8 F0 01 00 00 10 02 00 01 
00:00:11:6243 Rx 1 0x110 s 8 F0 01 00 00 10 01 00 00 
00:00:11:6245 Rx 1 0x111 s 8 F8 00 00 00 11 01 00 00 
00:00:11:6245 Rx 2 0x211 s 8 F8 00 00 00 11 02 00 01 
00:00:11:6253 Rx 2 0x210 s 8 F1 01 00 00 10 02 00 01 
00:00:11:6253 Rx 1 0x110 s 8 F1 01 00 00 10 01 00 00 
00:00:11:6263 Rx 1 0x110 s 8 F2 01 00 00 10 01 00 00 
00:00:11:6264 Rx 2 0x210 s 8 F2 01 00 00 10 02 00 01 
00:00:11:6265 Rx 1 0x111 s 8 F9 00 00 00 11 01 00 00 
00:00:11:6265 Rx 2 0x211 s 8 F9 00 00 00 11 02 00 01 
00:00:11:6273 Rx 2 0x210 s 8 F3 01 00 00 10 02 00 01 
00:00:11:6273 Rx 1 0x110 s 8 F3 01 00 00 10 01 00 00 
00:00:11:6283 Rx 2 0x200 s 8 32 00 00 00 00 02 01 01 
00:00:11:6283 Rx 1 0x100 s 8 32 00 00 00 00 01 01 00 
00:00:11:6285 Rx 2 0x201 s 8 19 00 00 00 01 02 01 01 
00:00:11:6285 Rx 1 0x101 s 8 19 00 00 00 01 01 01 00 
00:00:11:6286 Rx 2 0x210 s 8 F4 01 00 00 10 02 00 01 
00:00:11:6286 Rx 1 0x110 s 8 F4 01 00 00 10 01 00 00 
00:00:11:6287 Rx 2 0x211 s 8 FA 00 00 00 11 02 00 01 
00:00:11:6287 Rx 1 0x111 s 8 FA 00 00 00 11 01 00 00 
00:00:11:6293 Rx 2 0x210 s 8 F5 01 00 00 10 02 00 01 
00:00:11:6293 Rx 1 0x110 s 8 F5 01 00 00 10 01 00 00 
00:00:11:6303 Rx 1 0x110 s 8 F6 01 00 00 10 01 00 00 
00:00:11:6303 Rx 2 0x210 s 8 F6 01 00 00 10 02 00 01 
00:00:11:6305 Rx 2 0x211 s 8 FB 00 00 00 11 02 00 01 
00:00:11:6305 Rx 1 0x111 s 8 FB 00 00 00 11 01 00 00 
00:00:11:6313 Rx 2 0x210 s 8 F7 01 00 00 10 02 00 01 
00:00:11:6313 Rx 1 0x110 s 8 F7 01 00 00 10 01 00 00 
00:00:11:6323 Rx 2 0x210 s 8 F8 01 00 00 10 02 00 01 
00:00:11:6323 Rx 1 0x110 s 8 F8 01 00 00 10 01 00 00 
00:00:11:6325 Rx 2 0x211 s 8 FC 00 00 00 11 02 00 01 
00:00:11:6325 Tx 1 0x54F x 8 00 00 00 00 00 00 00 00 
00:00:11:6326 Rx 1 0x111 s 8 FC 00 00 00 11 01 00 00 
00:00:11:6326 Tx 2 0x18FF20EF x 8 00 00 00 00 00 00 00 00 
00:00:11:6328 Tx 1 0x28C x 8 00 00 00 00 00 00 00 00 
00:00:11:6333 Rx 1 0x110 s 8 F9 01 00 00 10 01 00 00 
00:00:11:6333 Rx 2 0x210 s 8 F9 01 00 00 10 02 00 01 
00:00:11:6343 Rx 2 0x210 s 8 FA 01 00 00 10 02 00 01 
00:00:11:6343 Rx 1 0x110 s 8 FA 01 00 00 10 01 00 00 
00:00:11:6345 Rx 2 0x211 s 8 FD 00 00 00 11 02 00 01 
00:00:11:6345 Rx 1 0x111 s 8 FD 00 00 00 11 01 00 00 
00:00:11:6353 Rx 1 0x110 s 8 FB 01 00 00 10 01 00 00 
00:00:11:6353 Rx 2 0x210 s 8 FB 01 00 00 10 02 00 01 
00:00:11:6363 Rx 2 0x210 s 8 FC 01 00 00 10 02 00 01 
00:00:11:6363 Rx 1 0x110 s 8 FC 01 00 00 10 01 00 00 
00:00:11:6365 Rx 2 0x211 s 8 FE 00 00 00 11 02 00 01 
00:00:11:6365 Rx 1 0x111 s 8 FE 00 00 00 11 01 00 00 
00:00:11:6373 Rx 2 0x210 s 8 FD 01 00 00 10 02 00 01 
00:00:11:6373 Rx 1 0x110 s 8 FD 01 00 00 10 01 00 00 
00:00:11:6383 Rx 1 0x100 s 8 33 00 00 00 00 01 01 00 
00:00:11:6383 Rx 2 0x200 s 8 33 00 00 00 00 02 01 01 
00:00:11:6385 Rx 2 0x210 s 8 FE 01 00 00 10 02 00 01 
00:00:11:6385 Rx 1 0x110 s 8 FE 01 00 00 10 01 00 00 
00:00:11:6386 Rx 1 0x111 s 8 FF 00 00 00 11 01 00 00 
00:00:11:6386 Rx 2 0x211 s 8 FF 00 00 00 11 02 00 01 
00:00:11:6393 Rx 2 0x210 s 8 FF 01 00 00 10 02 00 01 
00:00:11:6393 Rx 1 0x110 s 8 FF 01 00 00 10 01 00 00 
00:00:11:6403 Rx 1 0x110 s 8 00 02 00 00 10 01 00 00 
00:00:11:6404 Rx 2 0x210 s 8 00 02 00 00 10 02 00 01 
00:00:11:6405 Rx 2 0x211 s 8 00 01 00 00 11 02 00 01 
00:00:11:6405 Rx 1 0x111 s 8 00 01 00 00 11 01 00 00 
00:00:11:6414 Rx 2 0x210 s 8 01 02 00 00 10 02 00 01 
00:00:11:6413 Rx 1 0x110 s 8 01 02 00 00 10 01 00 00 
00:00:11:6423 Rx 1 0x110 s 8 02 02 00 00 10 01 00 00 
00:00:11:6423 Rx 2 0x210 s 8 02 02 00 00 10 02 00 01 
00:00:11:6425 Rx 1 0x111 s 8 01 01 00 00 11 01 00 00 
00:00:11:6425 Rx 2 0x211 s 8 01 01 00 00 11 02 00 01 
00:00:11:6433 Rx 2 0x210 s 8 03 02 00 00 10 02 00 01 
00:00:11:6433 Rx 1 0x110 s 8 03 02 00 00 10 01 00 00 
00:00:11:6443 Rx 2 0x210 s 8 04 02 00 00 10 02 00 01 
00:00:11:6443 Rx 1 0x110 s 8 04 02 00 00 10 01 00 00 
00:00:11:6445 Rx 1 0x111 s 8 02 01 00 00 11 01 00 00 
00:00:11:6445 Rx 2 0x211 s 8 02 01 00 00 11 02 00 01 
00:00:11:6453 Rx 1 0x110 s 8 05 02 00 00 10 01 00 00 
00:00:11:6453 Rx 2 0x210 s 8 05 02 00 00 10 02 00 01 
00:00:11:6463 Rx 1 0x110 s 8 06 02 00 00 10 01 00 00 
00:00:11:6463 Rx 2 0x210 s 8 06 02 00 00 10 02 00 01 
00:00:11:6465 Rx 2 0x211 s 8 03 01 00 00 11 02 00 01 
00:00:11:6465 Rx 1 0x111 s 8 03 01 00 00 11 01 00 00 
00:00:11:6473 Rx 1 0x110 s 8 07 02 00 00 10 01 00 00 
00:00:11:6473 Rx 2 0x210 s 8 07 02 00 00 10 02 00 01 
00:00:11:6484 Rx 2 0x200 s 8 34 00 00 00 00 02 01 01 
00:00:11:6483 Rx 1 0x100 s 8 34 00 00 00 00 01 01 00 
00:00:11:6485 Rx 1 0x101 s 8 1A 00 00 00 01 01 01 00 
00:00:11:6485 Rx 2 0x201 s 8 1A 00 00 00 01 02 01 01 
00:00:11:6486 Rx 2 0x210 s 8 08 02 00 00 10 02 00 01 
00:00:11:6486 Rx 1 0x110 s 8 08 02 00 00 10 01 00 00 
00:00:11:6487 Rx 1 0x111 s 8 04 01 00 00 11 01 00 00 
00:00:11:6487 Rx 2 0x211 s 8 04 01 00 00 11 02 00 01 
00:00:11:6493 Rx 2 0x210 s 8 09 02 00 00 10 02 00 01 
00:00:11:6493 Rx 1 0x110 s 8 09 02 00 00 10 01 00 00 
00:00:11:6495 Tx 2 0x18FF20EF x 8 00 00 00 00 00 00 00 00 
00:00:11:6495 Tx 1 0x54F x 8 00 00 00 00 00 00 00 00 
00:00:11:6496 Tx 1 0x28C x 8 00 00 00 00 00 00 00 00 
00:00:11:6503 Rx 2 0x210 s 8 0A 02 00 00 10 02 00 01 
00:00:11:6503 Rx 1 0x110 s 8 0A 02 00 00 10 01 00 00 
00:00:11:6505 Rx 2 0x211 s 8 05 01 00 00 11 02 00 01 
00:00:11:6505 Rx 1 0x111 s 8 05 01 00 00 11 01 00 00 
00:00:11:6513 Rx 2 0x210 s 8 0B 02 00 00 10 02 00 01 
00:00:11:6513 Rx 1 0x110 s 8 0B 02 00 00 10 01 00 00 
00:00:11:6523 Rx 1 0x110 s 8 0C 02 00 00 10 01 00 00 
00:00:11:6523 Rx 2 0x210 s 8 0C 02 00 00 10 02 00 01 
00:00:11:6525 Rx 2 0x211 s 8 06 01 00 00 11 02 00 01 
00:00:11:6525 Rx 1 0x111 s 8 06 01 00 00 11 01 00 00 
